time	V(vin)	V(vo1)	V(vo2)
0.000000000000000e+00	0.000000e+00	-1.471202e-01	1.786869e-04
1.670174043229258e-08	-4.197605e-04	-1.471165e-01	1.819970e-04
3.340348086458517e-08	-8.395211e-04	-1.471320e-01	1.664523e-04
5.010522129687775e-08	-1.259282e-03	-1.471668e-01	1.320526e-04
6.680696172917034e-08	-1.679042e-03	-1.472209e-01	7.879805e-05
8.350870216146292e-08	-2.098803e-03	-1.472943e-01	6.688571e-06
1.002104425937555e-07	-2.518563e-03	-1.473869e-01	-8.427582e-05
1.169121830260480e-07	-2.938323e-03	-1.474988e-01	-1.940951e-04
1.573065147718692e-07	-3.953543e-03	-1.479165e-01	-5.955801e-04
2.038281145852194e-07	-5.122758e-03	-1.486339e-01	-1.264078e-03
2.678053447568661e-07	-6.730679e-03	-1.500328e-01	-2.502716e-03
3.528969592318737e-07	-8.869261e-03	-1.525735e-01	-4.574359e-03
4.674289965525523e-07	-1.174776e-02	-1.570575e-01	-7.830293e-03
5.963024099650690e-07	-1.498668e-02	-1.634235e-01	-1.180663e-02
7.424785676930039e-07	-1.866045e-02	-1.722066e-01	-1.643766e-02
8.839764215078288e-07	-2.221664e-02	-1.823558e-01	-2.088808e-02
1.072329389404081e-06	-2.695037e-02	-1.985188e-01	-2.668855e-02
1.343781055552860e-06	-3.377250e-02	-2.262830e-01	-3.480563e-02
1.634970547869026e-06	-4.109057e-02	-2.613525e-01	-4.306170e-02
1.911789263119171e-06	-4.804735e-02	-2.994513e-01	-5.010543e-02
2.132709916728585e-06	-5.359924e-02	-3.327894e-01	-5.462153e-02
2.317709305481232e-06	-5.824833e-02	-3.622256e-01	-5.689182e-02
2.524847503464255e-06	-6.345367e-02	-3.957283e-01	-5.704554e-02
2.725684750902704e-06	-6.850058e-02	-4.276779e-01	-5.429621e-02
2.915250381876786e-06	-7.326414e-02	-4.564030e-01	-4.861914e-02
3.122542852113841e-06	-7.847302e-02	-4.855007e-01	-3.929434e-02
3.331315862242295e-06	-8.371899e-02	-5.120478e-01	-2.752233e-02
3.559814270206101e-06	-8.946043e-02	-5.380673e-01	-1.314778e-02
3.767148322599404e-06	-9.466992e-02	-5.592113e-01	2.154132e-04
3.974752648673225e-06	-9.988604e-02	-5.782594e-01	1.312449e-02
4.216016330581583e-06	-1.059477e-01	-5.983095e-01	2.685663e-02
4.556161254336290e-06	-1.144932e-01	-6.241834e-01	4.399044e-02
4.865229658944348e-06	-1.222575e-01	-6.458508e-01	5.730448e-02
5.393568691748092e-06	-1.355292e-01	-6.803491e-01	7.646867e-02
6.011472114206041e-06	-1.510489e-01	-7.187318e-01	9.593299e-02
6.587169535577184e-06	-1.655064e-01	-7.532080e-01	1.123035e-01
7.903518017846990e-06	-1.985554e-01	-8.294328e-01	1.472949e-01
1.049883840069361e-05	-2.636733e-01	-9.743487e-01	2.140569e-01
1.670795521167564e-05	-4.191459e-01	-1.307868e+00	3.711480e-01
3.135639271167564e-05	-7.829837e-01	-2.066016e+00	7.367380e-01
4.112201771167565e-05	-1.024183e+00	-2.559841e+00	9.787791e-01
5.088764271167565e-05	-1.259382e+00	-3.040399e+00	1.214935e+00
6.065326771167565e-05	-1.488579e+00	-3.507689e+00	1.445207e+00
7.041889271167566e-05	-1.711775e+00	-3.961713e+00	1.669593e+00
8.018451771167567e-05	-1.928971e+00	-4.402469e+00	1.888095e+00
8.995014271167567e-05	-2.140165e+00	-4.829959e+00	2.100712e+00
9.971576771167566e-05	-2.345358e+00	-5.244181e+00	2.307445e+00
1.157592944973900e-04	-2.665573e+00	-5.891048e+00	2.630583e+00
1.318028212831043e-04	-2.952444e+00	-6.470613e+00	2.920625e+00
1.478463480688186e-04	-3.205972e+00	-6.982875e+00	3.177572e+00
1.638898748545329e-04	-3.426156e+00	-7.427835e+00	3.401423e+00
1.799334016402472e-04	-3.612997e+00	-7.805493e+00	3.592178e+00
1.959769284259615e-04	-3.766494e+00	-8.115848e+00	3.749838e+00
2.120204552116757e-04	-3.886648e+00	-8.358900e+00	3.874402e+00
2.336443391402472e-04	-3.974584e+00	-8.538249e+00	3.968594e+00
2.552682230688186e-04	-3.992276e+00	-8.576148e+00	3.992398e+00
2.768921069973901e-04	-3.939724e+00	-8.472597e+00	3.945813e+00
2.985159909259616e-04	-3.816930e+00	-8.227595e+00	3.828839e+00
3.201398748545330e-04	-3.623893e+00	-7.841142e+00	3.641475e+00
3.417637587831045e-04	-3.360612e+00	-7.313240e+00	3.383723e+00
3.633876427116759e-04	-3.027088e+00	-6.643887e+00	3.055582e+00
3.752459016402473e-04	-2.820730e+00	-6.229506e+00	2.851859e+00
3.871041605688188e-04	-2.601958e+00	-5.789367e+00	2.635546e+00
3.989624194973902e-04	-2.370773e+00	-5.323468e+00	2.406642e+00
4.108206784259617e-04	-2.127175e+00	-4.831810e+00	2.165147e+00
4.226789373545331e-04	-1.871164e+00	-4.314393e+00	1.911062e+00
4.345371962831045e-04	-1.602739e+00	-3.771217e+00	1.644386e+00
4.463954552116760e-04	-1.321902e+00	-3.202282e+00	1.365119e+00
4.519758123545331e-04	-1.188328e+00	-2.931707e+00	1.232152e+00
4.575561694973903e-04	-1.053710e+00	-2.657550e+00	1.098163e+00
4.631365266402474e-04	-9.180491e-01	-2.379812e+00	9.631510e-01
4.687168837831046e-04	-7.813450e-01	-2.098491e+00	8.271169e-01
4.742972409259617e-04	-6.435977e-01	-1.813589e+00	6.900603e-01
4.798775980688188e-04	-5.048070e-01	-1.525104e+00	5.519813e-01
4.854579552116760e-04	-3.649731e-01	-1.233038e+00	4.128799e-01
4.903407677116759e-04	-2.426140e-01	-9.701813e-01	2.917937e-01
4.952235802116759e-04	-1.200265e-01	-6.951438e-01	1.721763e-01
4.985386254220634e-04	-3.672783e-02	-4.941064e-01	9.401295e-02
4.996502749639504e-04	-8.789542e-03	-4.170858e-01	7.115051e-02
5.005582597296034e-04	1.403057e-02	-3.436146e-01	5.683066e-02
5.009690489785423e-04	2.435471e-02	-3.048797e-01	5.287704e-02
5.012812976743389e-04	3.220218e-02	-2.711374e-01	5.203117e-02
5.014677145609652e-04	3.688717e-02	-2.485623e-01	5.277424e-02
5.016920340868791e-04	4.252465e-02	-2.178668e-01	5.524971e-02
5.020630597989163e-04	5.184890e-02	-1.603694e-01	6.184620e-02
5.023882165426001e-04	6.002017e-02	-1.027993e-01	6.966666e-02
5.027322041679794e-04	6.866441e-02	-3.349265e-02	7.954419e-02
5.030711472166710e-04	7.718156e-02	4.341303e-02	9.004831e-02
5.035429810304815e-04	8.903747e-02	1.622684e-01	1.050085e-01
5.039720298936905e-04	9.981763e-02	2.784666e-01	1.182868e-01
5.042097082701029e-04	1.057892e-01	3.445247e-01	1.248865e-01
5.043745123538322e-04	1.099296e-01	3.880380e-01	1.282881e-01
5.045580933748633e-04	1.145417e-01	4.316234e-01	1.305546e-01
5.046851042178310e-04	1.177325e-01	4.559106e-01	1.308207e-01
5.047643817163918e-04	1.197241e-01	4.677625e-01	1.305530e-01
5.048659894906465e-04	1.222766e-01	4.804423e-01	1.301305e-01
5.049446082136713e-04	1.242516e-01	4.884981e-01	1.298779e-01
5.050121306499074e-04	1.259478e-01	4.941764e-01	1.298248e-01
5.050869103670149e-04	1.278262e-01	4.994435e-01	1.300249e-01
5.051794425914853e-04	1.301506e-01	5.049784e-01	1.306408e-01
5.052689466400856e-04	1.323989e-01	5.095574e-01	1.316339e-01
5.053890072668063e-04	1.354146e-01	5.148829e-01	1.335070e-01
5.055402196174184e-04	1.392128e-01	5.208930e-01	1.364367e-01
5.056918874560827e-04	1.430222e-01	5.264581e-01	1.398032e-01
5.058733735755485e-04	1.475805e-01	5.327860e-01	1.441398e-01
5.060884417218312e-04	1.529819e-01	5.400675e-01	1.494414e-01
5.066595539131964e-04	1.673240e-01	5.588587e-01	1.636974e-01
5.082292278364843e-04	2.067309e-01	6.082479e-01	2.029692e-01
5.103221264008682e-04	2.592415e-01	6.711680e-01	2.553576e-01
5.137860103566702e-04	3.460471e-01	7.715212e-01	3.420315e-01
5.175440916918453e-04	4.400387e-01	8.768292e-01	4.359219e-01
5.224269041918453e-04	5.617861e-01	1.009972e+00	5.575727e-01
5.321925291918453e-04	8.035806e-01	1.268515e+00	7.992775e-01
5.426556988347024e-04	1.061871e+00	1.538218e+00	1.057525e+00
5.531188684775596e-04	1.312953e+00	1.799369e+00	1.308587e+00
5.635820381204167e-04	1.556828e+00	2.051970e+00	1.552463e+00
5.740452077632739e-04	1.793496e+00	2.296021e+00	1.789153e+00
5.845083774061311e-04	2.022955e+00	2.531520e+00	2.018658e+00
5.949715470489883e-04	2.245208e+00	2.758469e+00	2.240978e+00
6.054347166918454e-04	2.460252e+00	2.976868e+00	2.456111e+00
6.221757881204168e-04	2.784187e+00	3.306253e+00	2.780228e+00
6.389168595489883e-04	3.070654e+00	3.597478e+00	3.066913e+00
6.556579309775597e-04	3.319653e+00	3.850543e+00	3.316164e+00
6.723990024061311e-04	3.531183e+00	4.065447e+00	3.527982e+00
6.891400738347027e-04	3.705245e+00	4.242191e+00	3.702367e+00
7.058811452632741e-04	3.841839e+00	4.380774e+00	3.839319e+00
7.226222166918455e-04	3.940964e+00	4.481198e+00	3.938837e+00
7.435485559775598e-04	3.991632e+00	4.533203e+00	3.990039e+00
7.644748952632741e-04	3.977326e+00	4.519333e+00	3.976267e+00
7.854012345489884e-04	3.898047e+00	4.439586e+00	3.897521e+00
8.063275738347028e-04	3.753795e+00	4.293962e+00	3.753801e+00
8.272539131204170e-04	3.544570e+00	4.082463e+00	3.545107e+00
8.481802524061314e-04	3.270371e+00	3.805086e+00	3.271439e+00
8.691065916918456e-04	2.931199e+00	3.461834e+00	2.932796e+00
8.809648506204170e-04	2.717052e+00	3.245113e+00	2.718925e+00
8.928231095489885e-04	2.491155e+00	3.015625e+00	2.493286e+00
9.046813684775599e-04	2.253508e+00	2.773370e+00	2.255880e+00
9.165396274061313e-04	2.004111e+00	2.518349e+00	2.006706e+00
9.283978863347029e-04	1.742964e+00	2.250561e+00	1.745765e+00
9.402561452632743e-04	1.470067e+00	1.970006e+00	1.473056e+00
9.521144041918457e-04	1.185421e+00	1.676685e+00	1.188580e+00
9.562996720489885e-04	1.084383e+00	1.572152e+00	1.087597e+00
9.604849399061314e-04	9.827723e-01	1.466207e+00	9.860347e-01
9.646702077632742e-04	8.805886e-01	1.358850e+00	8.838919e-01
9.688554756204171e-04	7.778320e-01	1.250082e+00	7.811690e-01
9.730407434775599e-04	6.745023e-01	1.139902e+00	6.778659e-01
9.772260113347028e-04	5.705997e-01	1.028311e+00	5.739825e-01
9.814112791918456e-04	4.661241e-01	9.153086e-01	4.695190e-01
9.862940916918455e-04	3.440414e-01	7.791793e-01	3.474100e-01
9.911769041918454e-04	2.216350e-01	6.354254e-01	2.248797e-01
9.960597166918453e-04	9.902000e-02	4.785990e-01	1.018750e-01
9.980391126266604e-04	4.928123e-02	4.042743e-01	5.160455e-02
9.992798112202087e-04	1.810026e-02	3.464729e-01	1.960772e-02
1.000089113675001e-03	-2.239671e-03	2.973478e-01	-1.867146e-03
1.000866196366412e-03	-2.176978e-02	2.315044e-01	-2.350546e-02
1.001712713055721e-03	-4.304434e-02	1.294445e-01	-4.845192e-02
1.002446392883832e-03	-6.148214e-02	5.608012e-03	-7.104756e-02
1.003244689187046e-03	-8.154228e-02	-1.660174e-01	-9.599379e-02
1.003583477759529e-03	-9.005501e-02	-2.508918e-01	-1.062777e-01
1.003802874519580e-03	-9.556757e-02	-3.109984e-01	-1.123953e-01
1.003932225305747e-03	-9.881755e-02	-3.477067e-01	-1.154333e-01
1.004028466362966e-03	-1.012356e-01	-3.754205e-01	-1.170298e-01
1.004128381915721e-03	-1.037459e-01	-4.042198e-01	-1.177241e-01
1.004223498972527e-03	-1.061357e-01	-4.312513e-01	-1.169091e-01
1.004363322645079e-03	-1.096485e-01	-4.697247e-01	-1.126852e-01
1.004490945699007e-03	-1.128548e-01	-5.028397e-01	-1.053173e-01
1.004631067719135e-03	-1.163750e-01	-5.360702e-01	-9.296746e-02
1.004777904392305e-03	-1.200638e-01	-5.668724e-01	-7.610378e-02
1.004955125017264e-03	-1.245158e-01	-5.988027e-01	-5.245145e-02
1.005131113606484e-03	-1.289366e-01	-6.256123e-01	-2.765711e-02
1.005294932541613e-03	-1.330516e-01	-6.466039e-01	-5.064464e-03
1.005468434775399e-03	-1.374097e-01	-6.655273e-01	1.693989e-02
1.005660953174877e-03	-1.422453e-01	-6.836340e-01	3.813994e-02
1.005913679889918e-03	-1.485928e-01	-7.044504e-01	6.116799e-02
1.006170940434347e-03	-1.550538e-01	-7.233194e-01	7.960888e-02
1.006534921863341e-03	-1.641944e-01	-7.476034e-01	9.949447e-02
1.006912680007521e-03	-1.736800e-01	-7.712404e-01	1.155894e-01
1.007250303842696e-03	-1.821570e-01	-7.914793e-01	1.272985e-01
1.007617308577609e-03	-1.913708e-01	-8.129306e-01	1.384319e-01
1.008477784015238e-03	-2.129692e-01	-8.620932e-01	1.619606e-01
1.010194592467471e-03	-2.560518e-01	-9.571831e-01	2.060633e-01
1.011911400919703e-03	-2.990933e-01	-1.051284e+00	2.499560e-01
1.013628209371936e-03	-3.420936e-01	-1.144396e+00	2.936385e-01
1.015345017824169e-03	-3.850529e-01	-1.236519e+00	3.371110e-01
1.017061826276402e-03	-4.279711e-01	-1.327654e+00	3.803733e-01
1.018778634728635e-03	-4.708482e-01	-1.417799e+00	4.234256e-01
1.020495443180868e-03	-5.136842e-01	-1.506955e+00	4.662678e-01
1.035143880680867e-03	-8.761016e-01	-2.257619e+00	8.301992e-01
1.045607050323724e-03	-1.133191e+00	-2.782789e+00	1.088221e+00
1.056070219966581e-03	-1.382784e+00	-3.291770e+00	1.338888e+00
1.066533389609438e-03	-1.624882e+00	-3.784563e+00	1.582200e+00
1.076996559252295e-03	-1.859483e+00	-4.261167e+00	1.818156e+00
1.087459728895152e-03	-2.086589e+00	-4.721583e+00	2.046757e+00
1.097922898538009e-03	-2.306198e+00	-5.165810e+00	2.268002e+00
1.108386068180866e-03	-2.518312e+00	-5.593849e+00	2.481892e+00
1.125127139609437e-03	-2.836900e+00	-6.237217e+00	2.803739e+00
1.141868211038008e-03	-3.117610e+00	-6.804217e+00	3.087950e+00
1.158609282466579e-03	-3.360442e+00	-7.294849e+00	3.334527e+00
1.175350353895150e-03	-3.565395e+00	-7.709115e+00	3.543468e+00
1.192091425323721e-03	-3.732469e+00	-8.047013e+00	3.714774e+00
1.208832496752292e-03	-3.861665e+00	-8.308544e+00	3.848444e+00
1.225573568180863e-03	-3.952983e+00	-8.493708e+00	3.944480e+00
1.245802362823720e-03	-3.993911e+00	-8.578393e+00	3.991304e+00
1.266031157466577e-03	-3.974103e+00	-8.540726e+00	3.977229e+00
1.286259952109433e-03	-3.893558e+00	-8.380709e+00	3.902255e+00
1.306488746752290e-03	-3.752277e+00	-8.098339e+00	3.766380e+00
1.326717541395147e-03	-3.550259e+00	-7.693619e+00	3.569606e+00
1.346946336038004e-03	-3.287504e+00	-7.166547e+00	3.311932e+00
1.367175130680860e-03	-2.964013e+00	-6.517123e+00	2.993359e+00
1.379033389609431e-03	-2.752466e+00	-6.092256e+00	2.784396e+00
1.390891648538003e-03	-2.528943e+00	-5.642429e+00	2.563279e+00
1.402749907466574e-03	-2.293445e+00	-5.167642e+00	2.330008e+00
1.414608166395145e-03	-2.045971e+00	-4.667897e+00	2.084581e+00
1.426466425323716e-03	-1.786521e+00	-4.143191e+00	1.827000e+00
1.438324684252287e-03	-1.515095e+00	-3.593526e+00	1.557264e+00
1.450182943180858e-03	-1.231694e+00	-3.018902e+00	1.275374e+00
1.455065755680858e-03	-1.114096e+00	-2.780229e+00	1.158298e+00
1.459948568180858e-03	-9.957292e-01	-2.538833e+00	1.040472e+00
1.464831380680858e-03	-8.765947e-01	-2.294713e+00	9.218963e-01
1.469714193180858e-03	-7.566924e-01	-2.047870e+00	8.025700e-01
1.474597005680858e-03	-6.360222e-01	-1.798303e+00	6.824936e-01
1.479479818180858e-03	-5.145840e-01	-1.546013e+00	5.616670e-01
1.484362630680858e-03	-3.923779e-01	-1.291000e+00	4.400902e-01
1.489245443180858e-03	-2.700858e-01	-1.029929e+00	3.189019e-01
1.494128255680858e-03	-1.475396e-01	-7.556827e-01	1.991239e-01
1.499011068180857e-03	-2.485441e-02	-4.565783e-01	8.485297e-02
1.500384999491330e-03	9.676083e-03	-3.544116e-01	5.996593e-02
1.501209227383883e-03	3.039091e-02	-2.727635e-01	5.435469e-02
1.501869857699299e-03	4.699357e-02	-1.878208e-01	5.866464e-02
1.502222954728250e-03	5.586713e-02	-1.319440e-01	6.519254e-02
1.502459671769856e-03	6.181583e-02	-8.832427e-02	7.143240e-02
1.502727277909018e-03	6.854062e-02	-3.359494e-02	7.934535e-02
1.503008891725292e-03	7.561719e-02	2.963954e-02	8.807442e-02
1.503388635914579e-03	8.515927e-02	1.237268e-01	1.000913e-01
1.503930116794367e-03	9.876457e-02	2.684666e-01	1.169835e-01
1.504181027757919e-03	1.050686e-01	3.378809e-01	1.241302e-01
1.504346878947112e-03	1.092354e-01	3.820205e-01	1.277190e-01
1.504541092732976e-03	1.141146e-01	4.287893e-01	1.303245e-01
1.504610931376989e-03	1.158691e-01	4.434276e-01	1.307218e-01
1.504670824652907e-03	1.173738e-01	4.541056e-01	1.307034e-01
1.504752110650341e-03	1.194158e-01	4.665384e-01	1.304533e-01
1.504844597384431e-03	1.217392e-01	4.784089e-01	1.300727e-01
1.504925342820572e-03	1.237676e-01	4.869601e-01	1.297909e-01
1.504991371604540e-03	1.254263e-01	4.927355e-01	1.297025e-01
1.505065362214910e-03	1.272849e-01	4.981375e-01	1.298478e-01
1.505158926872400e-03	1.296353e-01	5.039181e-01	1.303966e-01
1.505248155498052e-03	1.318766e-01	5.086135e-01	1.313136e-01
1.505360865051240e-03	1.347078e-01	5.137300e-01	1.329861e-01
1.505506419959912e-03	1.383638e-01	5.196191e-01	1.357156e-01
1.505656198241726e-03	1.421258e-01	5.251860e-01	1.389737e-01
1.505832000488311e-03	1.465414e-01	5.313658e-01	1.431318e-01
1.506037864724009e-03	1.517117e-01	5.383707e-01	1.481858e-01
1.506578690912531e-03	1.652935e-01	5.562317e-01	1.616759e-01
1.507985150487460e-03	2.006045e-01	6.007214e-01	1.968604e-01
1.509860429920699e-03	2.476611e-01	6.573882e-01	2.437993e-01
1.513610988787178e-03	3.416646e-01	7.665094e-01	3.376552e-01
1.517009771940269e-03	4.266888e-01	8.620934e-01	4.225880e-01
1.521892584440269e-03	5.484871e-01	9.955393e-01	5.442808e-01
1.531658209440269e-03	7.904210e-01	1.254589e+00	7.861215e-01
1.542121379083126e-03	1.048919e+00	1.524656e+00	1.044575e+00
1.552584548725982e-03	1.300262e+00	1.786199e+00	1.295896e+00
1.563047718368839e-03	1.544450e+00	2.039219e+00	1.540084e+00
1.573510888011696e-03	1.781483e+00	2.283715e+00	1.777138e+00
1.583974057654553e-03	2.011360e+00	2.519688e+00	2.007060e+00
1.594437227297410e-03	2.234083e+00	2.747137e+00	2.229849e+00
1.604900396940267e-03	2.449650e+00	2.966063e+00	2.445504e+00
1.621641468368838e-03	2.774541e+00	3.296437e+00	2.770576e+00
1.638382539797409e-03	3.062040e+00	3.588724e+00	3.058291e+00
1.655123611225980e-03	3.312146e+00	3.842922e+00	3.308648e+00
1.671864682654551e-03	3.524860e+00	4.059033e+00	3.521648e+00
1.688605754083122e-03	3.700180e+00	4.237055e+00	3.697291e+00
1.705346825511694e-03	3.838108e+00	4.376990e+00	3.835576e+00
1.722087896940265e-03	3.938643e+00	4.478837e+00	3.936504e+00
1.743014236225978e-03	3.991138e+00	4.532687e+00	3.989533e+00
1.763940575511692e-03	3.978596e+00	4.520599e+00	3.977523e+00
1.784866914797406e-03	3.901016e+00	4.442573e+00	3.900476e+00
1.805793254083120e-03	3.758398e+00	4.298608e+00	3.758390e+00
1.826719593368834e-03	3.550743e+00	4.088705e+00	3.551267e+00
1.847645932654548e-03	3.278050e+00	3.812863e+00	3.279105e+00
1.868572271940262e-03	2.940320e+00	3.471083e+00	2.941905e+00
1.880430530868833e-03	2.726889e+00	3.255091e+00	2.728750e+00
1.892288789797404e-03	2.501646e+00	3.026282e+00	2.503766e+00
1.904147048725975e-03	2.264589e+00	2.784656e+00	2.266951e+00
1.916005307654546e-03	2.015721e+00	2.530213e+00	2.018306e+00
1.927863566583117e-03	1.755039e+00	2.262953e+00	1.757831e+00
1.939721825511689e-03	1.482546e+00	1.982877e+00	1.485527e+00
1.951580084440260e-03	1.198239e+00	1.689983e+00	1.201392e+00
1.955765352297403e-03	1.097303e+00	1.585576e+00	1.100511e+00
1.959950620154546e-03	9.957840e-01	1.479778e+00	9.990402e-01
1.964135888011688e-03	8.936831e-01	1.372590e+00	8.969810e-01
1.968321155868831e-03	7.910001e-01	1.264012e+00	7.943327e-01
1.972506423725974e-03	6.877351e-01	1.154043e+00	6.910955e-01
1.976691691583117e-03	5.838880e-01	1.042683e+00	5.872693e-01
1.980876959440259e-03	4.794588e-01	9.299338e-01	4.828541e-01
1.985759771940259e-03	3.574186e-01	7.943401e-01	3.607929e-01
1.990642584440259e-03	2.350420e-01	6.518055e-01	2.383106e-01
1.995525396940259e-03	1.124442e-01	4.977003e-01	1.153911e-01
1.997598985598334e-03	6.034179e-02	4.227141e-01	6.284745e-02
1.998928241725874e-03	2.693602e-02	3.647950e-01	2.876562e-02
1.999774141065750e-03	5.676452e-03	3.183967e-01	6.593626e-03
2.000554733862069e-03	-1.394195e-02	2.599446e-01	-1.472955e-02
2.001449635872485e-03	-3.643282e-02	1.645409e-01	-4.057063e-02
2.002217433501638e-03	-5.572838e-02	4.715805e-02	-6.393529e-02
2.003047997763552e-03	-7.659986e-02	-1.215968e-01	-8.981250e-02
2.003594085680449e-03	-9.032155e-02	-2.552971e-01	-1.062241e-01
2.003908997447611e-03	-9.823395e-02	-3.413054e-01	-1.144155e-01
2.004056626511257e-03	-1.019431e-01	-3.834563e-01	-1.170047e-01
2.004160779430352e-03	-1.045599e-01	-4.134103e-01	-1.175184e-01
2.004255302795487e-03	-1.069347e-01	-4.401142e-01	-1.162723e-01
2.004395102411003e-03	-1.104469e-01	-4.780082e-01	-1.109887e-01
2.004546618616248e-03	-1.142534e-01	-5.163097e-01	-1.007917e-01
2.004687996990553e-03	-1.178052e-01	-5.484633e-01	-8.687672e-02
2.004846796880522e-03	-1.217945e-01	-5.798086e-01	-6.722267e-02
2.005039283781179e-03	-1.266299e-01	-6.120728e-01	-4.067388e-02
2.005212039142514e-03	-1.309694e-01	-6.363487e-01	-1.642157e-02
2.005385954608047e-03	-1.353380e-01	-6.568933e-01	6.751150e-03
2.005559142308615e-03	-1.396881e-01	-6.743228e-01	2.722985e-02
2.005813317812487e-03	-1.460721e-01	-6.964983e-01	5.262160e-02
2.006045869192438e-03	-1.519127e-01	-7.144225e-01	7.128028e-02
2.006364652375216e-03	-1.599185e-01	-7.365071e-01	9.093494e-02
