time	V(vin)	V(vo1)	V(vo2)
0.000000000000000e+00	0.000000e+00	-1.471202e-01	1.786869e-04
1.130125160769546e-08	3.550393e-04	-1.471216e-01	1.773816e-04
2.260250321539092e-08	7.100786e-04	-1.471142e-01	1.847929e-04
3.390375482308638e-08	1.065118e-03	-1.470980e-01	2.009206e-04
4.520500643078185e-08	1.420157e-03	-1.470730e-01	2.257649e-04
5.650625803847731e-08	1.775196e-03	-1.470392e-01	2.593256e-04
6.780750964617277e-08	2.130236e-03	-1.469966e-01	3.016028e-04
7.910876125386821e-08	2.485275e-03	-1.469452e-01	3.525965e-04
1.117047269995861e-07	3.509307e-03	-1.467019e-01	5.913782e-04
1.494619884209717e-07	4.695486e-03	-1.462445e-01	1.032640e-03
1.961354894805641e-07	6.161776e-03	-1.453959e-01	1.828138e-03
2.568882620968995e-07	8.070379e-03	-1.438180e-01	3.238318e-03
3.392859831993709e-07	1.065898e-02	-1.408558e-01	5.680891e-03
4.568957160436745e-07	1.435378e-02	-1.352684e-01	9.799344e-03
5.830167872614005e-07	1.831597e-02	-1.276889e-01	1.463685e-02
7.191635589029201e-07	2.259311e-02	-1.177045e-01	2.003820e-02
8.630211370650652e-07	2.711248e-02	-1.051323e-01	2.573961e-02
1.040123995711232e-06	3.267623e-02	-8.666746e-02	3.268500e-02
1.295323431965516e-06	4.069334e-02	-5.356984e-02	4.264479e-02
1.805722304474084e-06	5.672722e-02	2.922657e-02	6.264900e-02
2.278015551105051e-06	7.156353e-02	1.242582e-01	8.126729e-02
2.839062640898533e-06	8.918706e-02	2.570051e-01	1.032179e-01
3.096496743628763e-06	9.727318e-02	3.229740e-01	1.126855e-01
3.300926902300031e-06	1.036942e-01	3.746344e-01	1.188933e-01
3.533330906918401e-06	1.109937e-01	4.280843e-01	1.240704e-01
3.610980669383819e-06	1.134326e-01	4.435513e-01	1.251926e-01
3.670636216150836e-06	1.153062e-01	4.535906e-01	1.257069e-01
3.760091197124633e-06	1.181158e-01	4.665501e-01	1.262728e-01
3.854775485837172e-06	1.210895e-01	4.782414e-01	1.268192e-01
3.929155864609540e-06	1.234255e-01	4.859430e-01	1.273224e-01
4.008695984907146e-06	1.259236e-01	4.928413e-01	1.280611e-01
4.112505258083150e-06	1.291838e-01	5.004876e-01	1.293871e-01
4.215198503946977e-06	1.324089e-01	5.069477e-01	1.311388e-01
4.349641442161799e-06	1.366310e-01	5.142740e-01	1.340443e-01
4.508546698433915e-06	1.416212e-01	5.220441e-01	1.380998e-01
4.677812874211782e-06	1.469367e-01	5.297107e-01	1.429118e-01
4.870966200812930e-06	1.530020e-01	5.380502e-01	1.487332e-01
5.110464725842020e-06	1.605224e-01	5.480940e-01	1.561341e-01
5.773630117022706e-06	1.813442e-01	5.750272e-01	1.768256e-01
6.416505604428371e-06	2.015259e-01	6.002884e-01	1.969223e-01
7.702256579239699e-06	2.418791e-01	6.491339e-01	2.371500e-01
1.027375852886235e-05	3.225355e-01	7.432665e-01	3.176415e-01
1.335772713982737e-05	4.191529e-01	8.523151e-01	4.141329e-01
1.730553213928379e-05	5.425987e-01	9.877972e-01	5.374550e-01
2.218834463928379e-05	6.948115e-01	1.151585e+00	6.895626e-01
3.195396963928379e-05	9.971329e-01	1.470803e+00	9.917831e-01
4.241713928214094e-05	1.320112e+00	1.805259e+00	1.314713e+00
5.288030892499809e-05	1.634111e+00	2.129386e+00	1.628690e+00
6.334347856785525e-05	1.939130e+00	2.443184e+00	1.933712e+00
7.380664821071239e-05	2.235168e+00	2.746652e+00	2.229782e+00
8.426981785356954e-05	2.522227e+00	3.039790e+00	2.516897e+00
9.473298749642670e-05	2.800305e+00	3.322599e+00	2.795060e+00
1.051961571392838e-04	3.069402e+00	3.595078e+00	3.064268e+00
1.219372285678553e-04	3.474856e+00	4.006047e+00	3.469949e+00
1.386782999964267e-04	3.833516e+00	4.369538e+00	3.828881e+00
1.554193714249982e-04	4.145383e+00	4.685551e+00	4.141065e+00
1.721604428535696e-04	4.410456e+00	4.954086e+00	4.406499e+00
1.889015142821411e-04	4.628736e+00	5.175143e+00	4.625184e+00
2.056425857107125e-04	4.800223e+00	5.348722e+00	4.797121e+00
2.223836571392839e-04	4.924917e+00	5.474823e+00	4.922308e+00
2.433099964249982e-04	4.989271e+00	5.540661e+00	4.987333e+00
2.642363357107125e-04	4.972373e+00	5.524343e+00	4.971105e+00
2.851626749964269e-04	4.874223e+00	5.425870e+00	4.873623e+00
3.060890142821412e-04	4.694820e+00	5.245241e+00	4.694887e+00
3.270153535678554e-04	4.434164e+00	4.982455e+00	4.434898e+00
3.479416928535698e-04	4.092255e+00	4.637514e+00	4.093655e+00
3.688680321392840e-04	3.669095e+00	4.210417e+00	3.671159e+00
3.807262910678555e-04	3.401810e+00	3.940631e+00	3.404220e+00
3.925845499964269e-04	3.119803e+00	3.655108e+00	3.122538e+00
4.044428089249984e-04	2.823073e+00	3.353846e+00	2.826111e+00
4.163010678535698e-04	2.511621e+00	3.036847e+00	2.514940e+00
4.281593267821412e-04	2.185447e+00	2.704109e+00	2.189025e+00
4.400175857107127e-04	1.844551e+00	2.355634e+00	1.848366e+00
4.518758446392841e-04	1.488932e+00	1.991421e+00	1.492963e+00
4.560611124964270e-04	1.362691e+00	1.861709e+00	1.366792e+00
4.602463803535698e-04	1.235729e+00	1.730449e+00	1.239892e+00
4.644316482107127e-04	1.108045e+00	1.597642e+00	1.112263e+00
4.686169160678556e-04	9.796404e-01	1.463288e+00	9.839049e-01
4.728021839249984e-04	8.505143e-01	1.327386e+00	8.548177e-01
4.769874517821413e-04	7.206667e-01	1.189937e+00	7.250014e-01
4.811727196392841e-04	5.900979e-01	1.050941e+00	5.944561e-01
4.860555321392841e-04	4.375181e-01	8.845361e-01	4.418636e-01
4.909383446392841e-04	2.845265e-01	7.107022e-01	2.887657e-01
4.958211571392841e-04	1.312671e-01	5.243801e-01	1.351547e-01
4.978068271839182e-04	6.889837e-02	4.385374e-01	7.229512e-02
4.990347776063797e-04	3.032317e-02	3.753090e-01	3.297628e-02
4.998062978169407e-04	6.085332e-03	3.259222e-01	7.735962e-03
5.005091103381104e-04	-1.599415e-02	2.651836e-01	-1.622295e-02
5.013274530651042e-04	-4.170268e-02	1.653509e-01	-4.573395e-02
5.020246407020699e-04	-6.360425e-02	4.427541e-02	-7.228057e-02
5.027763718939164e-04	-8.721787e-02	-1.286433e-01	-1.016569e-01
5.033051147804284e-04	-1.038258e-01	-2.745810e-01	-1.216606e-01
5.035934043552955e-04	-1.128805e-01	-3.630362e-01	-1.311292e-01
5.037315027608698e-04	-1.172179e-01	-4.072658e-01	-1.341895e-01
5.038312333851996e-04	-1.203501e-01	-4.393779e-01	-1.348117e-01
5.039218360152006e-04	-1.231956e-01	-4.680614e-01	-1.334482e-01
5.040350438609365e-04	-1.267511e-01	-5.025742e-01	-1.285620e-01
5.041708686500938e-04	-1.310167e-01	-5.415168e-01	-1.182342e-01
5.042983647545981e-04	-1.350207e-01	-5.748016e-01	-1.040827e-01
5.044518449229541e-04	-1.398406e-01	-6.099969e-01	-8.238411e-02
5.046348692899906e-04	-1.455881e-01	-6.459534e-01	-5.311024e-02
5.048072411025933e-04	-1.510010e-01	-6.745024e-01	-2.459657e-02
5.049739636780313e-04	-1.562362e-01	-6.978360e-01	1.932220e-03
5.051399545303536e-04	-1.614484e-01	-7.177853e-01	2.579468e-02
5.053529438872505e-04	-1.681360e-01	-7.401531e-01	5.205338e-02
5.055935342020225e-04	-1.756899e-01	-7.626557e-01	7.630690e-02
5.058729473733340e-04	-1.844622e-01	-7.863206e-01	9.826221e-02
5.062420445982571e-04	-1.960493e-01	-8.153642e-01	1.206578e-01
5.065838706676863e-04	-2.067794e-01	-8.409692e-01	1.371709e-01
5.069199425036526e-04	-2.173279e-01	-8.653591e-01	1.508041e-01
5.072767437412079e-04	-2.285260e-01	-8.907749e-01	1.638175e-01
5.081795079545885e-04	-2.568537e-01	-9.539077e-01	1.941172e-01
5.101267772483990e-04	-3.179446e-01	-1.086235e+00	2.563394e-01
5.120740465422094e-04	-3.789670e-01	-1.217345e+00	3.183093e-01
5.140213158360198e-04	-4.399208e-01	-1.347239e+00	3.800270e-01
5.159685851298302e-04	-5.008062e-01	-1.475916e+00	4.414924e-01
5.179158544236406e-04	-5.616230e-01	-1.603376e+00	5.027057e-01
5.198631237174511e-04	-6.223713e-01	-1.729620e+00	5.636667e-01
5.218103930112615e-04	-6.830511e-01	-1.854647e+00	6.243755e-01
5.364588305112615e-04	-1.135396e+00	-2.783859e+00	1.078399e+00
5.469220001541186e-04	-1.456054e+00	-3.435902e+00	1.400211e+00
5.573851697969758e-04	-1.767182e+00	-4.067755e+00	1.712676e+00
5.678483394398329e-04	-2.068780e+00	-4.679419e+00	2.015794e+00
5.783115090826901e-04	-2.360848e+00	-5.270895e+00	2.309564e+00
5.887746787255473e-04	-2.643388e+00	-5.842181e+00	2.593988e+00
5.992378483684045e-04	-2.916397e+00	-6.393278e+00	2.869063e+00
6.097010180112616e-04	-3.179877e+00	-6.924187e+00	3.134792e+00
6.208617322969759e-04	-3.445078e+00	-7.459057e+00	3.402909e+00
6.320224465826902e-04	-3.690613e+00	-7.954269e+00	3.651342e+00
6.431831608684045e-04	-3.916483e+00	-8.409823e+00	3.880091e+00
6.543438751541188e-04	-4.122688e+00	-8.825719e+00	4.089156e+00
6.655045894398330e-04	-4.309227e+00	-9.201956e+00	4.278538e+00
6.766653037255473e-04	-4.476100e+00	-9.538535e+00	4.448235e+00
6.878260180112616e-04	-4.623308e+00	-9.835456e+00	4.598249e+00
6.911067196179044e-04	-4.661569e+00	-9.904325e+00	4.623752e+00
6.930803570495444e-04	-4.683641e+00	-9.929131e+00	4.610814e+00
6.950539944811844e-04	-4.704985e+00	-9.949775e+00	4.591128e+00
6.970276319128245e-04	-4.725601e+00	-9.966256e+00	4.564696e+00
6.990012693444645e-04	-4.745489e+00	-9.978575e+00	4.531517e+00
7.009749067761045e-04	-4.764649e+00	-9.986731e+00	4.491592e+00
7.029485442077445e-04	-4.783081e+00	-9.990725e+00	4.444919e+00
7.049221816393846e-04	-4.800786e+00	-9.990556e+00	4.391500e+00
7.145966460457379e-04	-4.877066e+00	-9.992991e+00	4.167469e+00
7.242711104520912e-04	-4.935000e+00	-9.994867e+00	3.996771e+00
7.339455748584445e-04	-4.974588e+00	-9.996183e+00	3.879406e+00
7.436200392647979e-04	-4.995830e+00	-9.996940e+00	3.815374e+00
7.532945036711512e-04	-4.998727e+00	-9.997138e+00	3.804675e+00
7.629689680775045e-04	-4.983277e+00	-9.996776e+00	3.847309e+00
7.726434324838578e-04	-4.949481e+00	-9.995854e+00	3.943275e+00
7.824090574838578e-04	-4.896693e+00	-9.995786e+00	4.098088e+00
7.921746824838578e-04	-4.825474e+00	-9.994755e+00	4.306266e+00
7.970574949838578e-04	-4.783034e+00	-9.992062e+00	4.426045e+00
8.047273607956597e-04	-4.707298e+00	-9.973001e+00	4.614635e+00
8.075157058153099e-04	-4.677046e+00	-9.952829e+00	4.668232e+00
8.079719389810256e-04	-4.671959e+00	-9.947662e+00	4.674740e+00
8.084281721467412e-04	-4.666834e+00	-9.941343e+00	4.679210e+00
8.088844053124569e-04	-4.661670e+00	-9.933874e+00	4.681642e+00
8.093406384781725e-04	-4.656468e+00	-9.925253e+00	4.682036e+00
8.097968716438882e-04	-4.651228e+00	-9.915482e+00	4.680392e+00
8.102531048096038e-04	-4.645949e+00	-9.904560e+00	4.676710e+00
8.107093379753196e-04	-4.640633e+00	-9.892487e+00	4.670990e+00
8.121906392097903e-04	-4.623105e+00	-9.855507e+00	4.649153e+00
8.136719404442611e-04	-4.605181e+00	-9.818128e+00	4.628003e+00
8.151532416787318e-04	-4.586859e+00	-9.780350e+00	4.607540e+00
8.166345429132025e-04	-4.568141e+00	-9.742173e+00	4.587762e+00
8.181158441476732e-04	-4.549026e+00	-9.703596e+00	4.568672e+00
8.195971453821440e-04	-4.529515e+00	-9.664620e+00	4.550268e+00
8.210784466166147e-04	-4.509606e+00	-9.625245e+00	4.532550e+00
8.350293394737576e-04	-4.297763e+00	-9.200996e+00	4.325025e+00
8.489802323309004e-04	-4.058150e+00	-8.720528e+00	4.089526e+00
8.629311251880434e-04	-3.790766e+00	-8.183841e+00	3.826051e+00
8.768820180451862e-04	-3.495612e+00	-7.590934e+00	3.534601e+00
8.908329109023291e-04	-3.172687e+00	-6.941809e+00	3.215177e+00
9.047838037594720e-04	-2.821992e+00	-6.236465e+00	2.867777e+00
9.187346966166148e-04	-2.443526e+00	-5.474902e+00	2.492403e+00
9.271052323309005e-04	-2.209122e+00	-5.003251e+00	2.259576e+00
9.354757680451862e-04	-1.970297e+00	-4.521259e+00	2.022236e+00
9.438463037594719e-04	-1.727050e+00	-4.028927e+00	1.780384e+00
9.522168394737576e-04	-1.479380e+00	-3.526254e+00	1.534020e+00
9.605873751880433e-04	-1.227289e+00	-3.013241e+00	1.283144e+00
9.689579109023290e-04	-9.707764e-01	-2.489887e+00	1.027755e+00
9.773284466166147e-04	-7.098415e-01	-1.956193e+00	7.678540e-01
9.870940716166145e-04	-4.050075e-01	-1.322187e+00	4.646947e-01
9.919768841166144e-04	-2.519469e-01	-9.946202e-01	3.133799e-01
9.968596966166143e-04	-9.864914e-02	-6.529729e-01	1.641866e-01
9.987864658180961e-04	-3.812393e-02	-5.078341e-01	1.080650e-01
9.997244839779068e-04	-8.655587e-03	-4.290486e-01	8.365537e-02
1.000396239755953e-03	1.244823e-02	-3.654547e-01	6.932784e-02
1.000811740946083e-03	2.550148e-02	-3.204238e-01	6.338973e-02
1.001197313946203e-03	3.761437e-02	-2.718061e-01	6.162222e-02
1.001552412263414e-03	4.876970e-02	-2.197983e-01	6.389206e-02
1.001810956027461e-03	5.689164e-02	-1.759906e-01	6.843498e-02
1.002065551238466e-03	6.488939e-02	-1.267547e-01	7.532097e-02
1.002340773331775e-03	7.353491e-02	-6.625120e-02	8.463126e-02
1.002768455799615e-03	8.696922e-02	4.000534e-02	1.008800e-01
1.003168856919625e-03	9.954600e-02	1.512603e-01	1.167532e-01
1.003598648008899e-03	1.130452e-01	2.809909e-01	1.336323e-01
1.003824792388384e-03	1.201478e-01	3.514576e-01	1.417747e-01
1.003977375232815e-03	1.249399e-01	3.972109e-01	1.460389e-01
1.004157356039914e-03	1.305923e-01	4.463867e-01	1.492945e-01
1.004224041083519e-03	1.326866e-01	4.623960e-01	1.498713e-01
1.004276871865498e-03	1.343457e-01	4.733033e-01	1.499315e-01
1.004348431710600e-03	1.365930e-01	4.861543e-01	1.497436e-01
1.004424365055612e-03	1.389776e-01	4.977089e-01	1.494070e-01
1.004511251009560e-03	1.417062e-01	5.087176e-01	1.490250e-01
1.004569017270984e-03	1.435202e-01	5.148221e-01	1.488820e-01
1.004630032175076e-03	1.454362e-01	5.202290e-01	1.489322e-01
1.004703761770297e-03	1.477515e-01	5.258277e-01	1.492983e-01
1.004784397268708e-03	1.502836e-01	5.310981e-01	1.500920e-01
1.004873875056662e-03	1.530934e-01	5.361721e-01	1.514596e-01
1.004992230609031e-03	1.568098e-01	5.421183e-01	1.539029e-01
1.005134093815667e-03	1.612643e-01	5.486264e-01	1.574720e-01
1.005282377233325e-03	1.659203e-01	5.550210e-01	1.616867e-01
1.005461375175025e-03	1.715405e-01	5.624565e-01	1.671064e-01
1.005675569006510e-03	1.782655e-01	5.711617e-01	1.737538e-01
1.006792518470214e-03	2.133285e-01	6.149728e-01	2.086806e-01
1.007900673329730e-03	2.481050e-01	6.567813e-01	2.433591e-01
1.010116983048763e-03	3.176204e-01	7.376424e-01	3.127329e-01
1.013705608867779e-03	4.300424e-01	8.643164e-01	4.250087e-01
1.017501082302797e-03	5.487053e-01	9.944780e-01	5.435613e-01
1.022383894802797e-03	7.008948e-01	1.158080e+00	6.956431e-01
1.032149519802797e-03	1.003152e+00	1.477101e+00	9.978009e-01
1.042612689445653e-03	1.326036e+00	1.811405e+00	1.320636e+00
1.053075859088510e-03	1.639916e+00	2.135365e+00	1.634494e+00
1.063539028731367e-03	1.944791e+00	2.448981e+00	1.939374e+00
1.074002198374224e-03	2.240662e+00	2.752252e+00	2.235276e+00
1.084465368017081e-03	2.527529e+00	3.045179e+00	2.522201e+00
1.094928537659938e-03	2.805391e+00	3.327762e+00	2.800148e+00
1.105391707302795e-03	3.074250e+00	3.600000e+00	3.069118e+00
1.122132778731366e-03	3.479265e+00	4.010520e+00	3.474362e+00
1.138873850159937e-03	3.837453e+00	4.373528e+00	3.832822e+00
1.155614921588508e-03	4.148813e+00	4.689024e+00	4.144499e+00
1.172355993017079e-03	4.413345e+00	4.957009e+00	4.409392e+00
1.189097064445650e-03	4.631049e+00	5.177483e+00	4.627502e+00
1.205838135874221e-03	4.801925e+00	5.350445e+00	4.798828e+00
1.222579207302792e-03	4.925974e+00	5.475895e+00	4.923370e+00
1.243505546588506e-03	4.989492e+00	5.540891e+00	4.987560e+00
1.264431885874220e-03	4.971788e+00	5.523760e+00	4.970525e+00
1.285358225159934e-03	4.872860e+00	5.424502e+00	4.872266e+00
1.306284564445648e-03	4.692709e+00	5.243116e+00	4.692783e+00
1.327210903731362e-03	4.431335e+00	4.979603e+00	4.432076e+00
1.348137243017076e-03	4.088738e+00	4.633963e+00	4.090144e+00
1.369063582302789e-03	3.664918e+00	4.206195e+00	3.666989e+00
1.380921841231360e-03	3.397306e+00	3.936077e+00	3.399722e+00
1.392780100159932e-03	3.115000e+00	3.650245e+00	3.117740e+00
1.404638359088503e-03	2.818001e+00	3.348700e+00	2.821043e+00
1.416496618017074e-03	2.506308e+00	3.031440e+00	2.509631e+00
1.428354876945645e-03	2.179921e+00	2.698467e+00	2.183503e+00
1.440213135874216e-03	1.838840e+00	2.349780e+00	1.842660e+00
1.452071394802788e-03	1.483066e+00	1.985380e+00	1.487101e+00
1.456256662659930e-03	1.356779e+00	1.855612e+00	1.360884e+00
1.460441930517073e-03	1.229775e+00	1.724291e+00	1.233941e+00
1.464627198374216e-03	1.102054e+00	1.591414e+00	1.106274e+00
1.468812466231359e-03	9.736153e-01	1.456984e+00	9.778820e-01
1.472997734088501e-03	8.444597e-01	1.320998e+00	8.487648e-01
1.477183001945644e-03	7.145869e-01	1.183459e+00	7.189227e-01
1.481368269802787e-03	5.839970e-01	1.044364e+00	5.883555e-01
1.486251082302787e-03	4.313979e-01	8.777561e-01	4.357417e-01
1.491133894802787e-03	2.783929e-01	7.034558e-01	2.826233e-01
1.496016707302787e-03	1.251258e-01	5.160505e-01	1.289762e-01
1.497976819271923e-03	6.355838e-02	4.301780e-01	6.687601e-02
1.499175407114456e-03	2.590523e-02	3.668908e-01	2.841358e-02
1.499932951155701e-03	2.106402e-03	3.164222e-01	3.509939e-03
1.500631689969540e-03	-1.984507e-02	2.529290e-01	-2.050021e-02
1.501426000029730e-03	-4.479851e-02	1.509421e-01	-4.940252e-02
1.502111440517581e-03	-6.633092e-02	2.695790e-02	-7.565378e-02
1.502846207853810e-03	-8.941149e-02	-1.449923e-01	-1.044727e-01
1.503232757208649e-03	-1.015531e-01	-2.516647e-01	-1.193682e-01
1.503469548732739e-03	-1.089905e-01	-3.236930e-01	-1.278720e-01
1.503603500112893e-03	-1.131976e-01	-3.661796e-01	-1.319850e-01
1.503697255414579e-03	-1.161423e-01	-3.964115e-01	-1.340609e-01
1.503793031721862e-03	-1.191503e-01	-4.273307e-01	-1.350192e-01
1.503884973985980e-03	-1.220379e-01	-4.565500e-01	-1.340749e-01
1.504033293373229e-03	-1.266961e-01	-5.020242e-01	-1.283329e-01
1.504167296067727e-03	-1.309045e-01	-5.405298e-01	-1.184058e-01
1.504309101293467e-03	-1.353579e-01	-5.774945e-01	-1.026085e-01
1.504451682397395e-03	-1.398355e-01	-6.100538e-01	-8.239055e-02
1.504644365673796e-03	-1.458863e-01	-6.475770e-01	-5.146360e-02
1.504821380556288e-03	-1.514450e-01	-6.766257e-01	-2.224834e-02
1.504989247081881e-03	-1.567162e-01	-6.998243e-01	4.291325e-03
1.505156355773558e-03	-1.619634e-01	-7.196255e-01	2.799548e-02
1.505382569420530e-03	-1.690662e-01	-7.430680e-01	5.536125e-02
1.505619841059927e-03	-1.765158e-01	-7.650003e-01	7.868824e-02
1.505909994597341e-03	-1.856253e-01	-7.893370e-01	1.008350e-01
1.506274149482947e-03	-1.970572e-01	-8.178309e-01	1.224199e-01
1.506600284218247e-03	-2.072946e-01	-8.421814e-01	1.379087e-01
1.506936569639094e-03	-2.178498e-01	-8.665511e-01	1.514317e-01
1.507708274337122e-03	-2.420679e-01	-9.211117e-01	1.785694e-01
1.509061823338481e-03	-2.845370e-01	-1.014161e+00	2.222645e-01
1.510415372339840e-03	-3.269786e-01	-1.106350e+00	2.657188e-01
1.511768921341198e-03	-3.693928e-01	-1.197679e+00	3.089323e-01
1.513122470342557e-03	-4.117796e-01	-1.288148e+00	3.519048e-01
1.514476019343916e-03	-4.541390e-01	-1.377756e+00	3.946366e-01
1.515829568345275e-03	-4.964709e-01	-1.466504e+00	4.371274e-01
1.517183117346633e-03	-5.387754e-01	-1.554393e+00	4.793774e-01
1.531831554846633e-03	-9.933641e-01	-2.493392e+00	9.358686e-01
1.541597179846633e-03	-1.294652e+00	-3.107305e+00	1.238178e+00
1.551362804846633e-03	-1.588388e+00	-3.704883e+00	1.533087e+00
1.561128429846632e-03	-1.874571e+00	-4.286128e+00	1.820596e+00
1.570894054846632e-03	-2.153201e+00	-4.851037e+00	2.100705e+00
1.580659679846632e-03	-2.424279e+00	-5.399613e+00	2.373414e+00
1.590425304846632e-03	-2.687804e+00	-5.931854e+00	2.638723e+00
1.600190929846632e-03	-2.943777e+00	-6.447761e+00	2.896633e+00
1.612746733418060e-03	-3.257067e+00	-7.079723e+00	3.213004e+00
1.625302536989488e-03	-3.546051e+00	-7.662646e+00	3.505095e+00
1.637858340560917e-03	-3.810727e+00	-8.196529e+00	3.772906e+00
1.650414144132345e-03	-4.051096e+00	-8.681372e+00	4.016438e+00
1.662969947703773e-03	-4.267157e+00	-9.117176e+00	4.235690e+00
1.675525751275202e-03	-4.458912e+00	-9.503940e+00	4.430662e+00
1.688081554846630e-03	-4.626359e+00	-9.841663e+00	4.601354e+00
1.692515510578332e-03	-4.677392e+00	-9.925948e+00	4.622387e+00
1.694679826555554e-03	-4.700995e+00	-9.946634e+00	4.596308e+00
1.696844142532776e-03	-4.723719e+00	-9.963632e+00	4.564853e+00
1.699008458509999e-03	-4.745564e+00	-9.976941e+00	4.528023e+00
1.701172774487221e-03	-4.766530e+00	-9.986561e+00	4.485818e+00
1.703337090464444e-03	-4.786618e+00	-9.992494e+00	4.438237e+00
1.705501406441666e-03	-4.805828e+00	-9.994737e+00	4.385281e+00
1.707665722418889e-03	-4.824158e+00	-9.993293e+00	4.326951e+00
1.716808393899840e-03	-4.891662e+00	-9.995615e+00	4.129990e+00
1.726574018899839e-03	-4.945936e+00	-9.995844e+00	3.966567e+00
1.736339643899839e-03	-4.981594e+00	-9.995865e+00	3.857461e+00
