time	V(vin)	V(vo1)	V(vo2)
0.000000000000000e+00	0.000000e+00	-1.471202e-01	1.786869e-04
5.516230808537256e-08	1.732976e-04	-1.471150e-01	1.907305e-04
1.103246161707451e-07	3.465950e-04	-1.470715e-01	2.325299e-04
1.654869242561177e-07	5.198924e-04	-1.469897e-01	3.040853e-04
2.206492323414902e-07	6.931898e-04	-1.468694e-01	4.053965e-04
2.758115404268628e-07	8.664870e-04	-1.467108e-01	5.364635e-04
3.309738485122353e-07	1.039784e-03	-1.465139e-01	6.972865e-04
3.861361565976078e-07	1.213081e-03	-1.462786e-01	8.878653e-04
5.224129247456596e-07	1.641206e-03	-1.455502e-01	1.387956e-03
8.675640112222170e-07	2.725519e-03	-1.428168e-01	2.748770e-03
1.090398455220311e-06	3.425561e-03	-1.403906e-01	3.615499e-03
1.447499028456712e-06	4.547390e-03	-1.352129e-01	4.982742e-03
2.161700174929513e-06	6.790973e-03	-1.212697e-01	7.696048e-03
2.945138668289511e-06	9.251898e-03	-9.950148e-02	1.067272e-02
4.512015655009507e-06	1.417302e-02	-3.287740e-02	1.668440e-02
7.645769628449499e-06	2.401066e-02	1.467452e-01	2.876267e-02
8.576999136904815e-06	2.693240e-02	2.113049e-01	3.212555e-02
9.239113987216576e-06	2.900923e-02	2.599659e-01	3.400747e-02
9.877735113294541e-06	3.101190e-02	3.015444e-01	3.509967e-02
1.039344391844549e-05	3.262876e-02	3.282140e-01	3.547715e-02
1.070579266804982e-05	3.360788e-02	3.399144e-01	3.559929e-02
1.105378837258651e-05	3.469859e-02	3.490477e-01	3.585640e-02
1.142402720743877e-05	3.585883e-02	3.559899e-01	3.637581e-02
1.184870978415097e-05	3.718944e-02	3.617685e-01	3.723568e-02
1.217998354645329e-05	3.822721e-02	3.652419e-01	3.806091e-02
1.257388369991102e-05	3.946094e-02	3.686699e-01	3.915933e-02
1.293790499213966e-05	4.060088e-02	3.714966e-01	4.023179e-02
1.349614417476989e-05	4.234859e-02	3.755033e-01	4.192688e-02
1.502178013259374e-05	4.712228e-02	3.855887e-01	4.664604e-02
1.794376610857976e-05	5.625265e-02	4.031287e-01	5.572477e-02
2.576155820317598e-05	8.057938e-02	4.442133e-01	7.996579e-02
3.552718320317597e-05	1.106873e-01	4.892927e-01	1.100259e-01
5.017562070317596e-05	1.550331e-01	5.492684e-01	1.543372e-01
6.203387963174740e-05	1.904288e-01	5.932918e-01	1.897223e-01
7.389213856031883e-05	2.243223e-01	6.348456e-01	2.236099e-01
8.575039748889028e-05	2.567136e-01	6.739299e-01	2.559999e-01
9.760865641746172e-05	2.876027e-01	7.105445e-01	2.868924e-01
1.094669153460332e-04	3.169897e-01	7.446896e-01	3.162873e-01
1.213251742746046e-04	3.448745e-01	7.763650e-01	3.441846e-01
1.331834332031760e-04	3.712571e-01	8.055708e-01	3.705843e-01
1.555048617746046e-04	4.154534e-01	8.545771e-01	4.148209e-01
1.778262903460332e-04	4.503210e-01	8.932542e-01	4.497344e-01
2.001477189174618e-04	4.758602e-01	9.216022e-01	4.753248e-01
2.224691474888904e-04	4.920708e-01	9.396211e-01	4.915921e-01
2.447905760603190e-04	4.989528e-01	9.473108e-01	4.985362e-01
2.671120046317476e-04	4.965062e-01	9.446715e-01	4.961573e-01
2.894334332031761e-04	4.847312e-01	9.317030e-01	4.844552e-01
3.054769599888905e-04	4.692615e-01	9.151151e-01	4.690373e-01
3.215204867746048e-04	4.496497e-01	8.936657e-01	4.494751e-01
3.375640135603190e-04	4.258956e-01	8.673549e-01	4.257685e-01
3.536075403460334e-04	3.979994e-01	8.361826e-01	3.979176e-01
3.696510671317477e-04	3.659610e-01	8.001488e-01	3.659223e-01
3.856945939174620e-04	3.297804e-01	7.592536e-01	3.297826e-01
4.017381207031762e-04	2.894576e-01	7.134969e-01	2.894985e-01
4.115037457031763e-04	2.636511e-01	6.843745e-01	2.637158e-01
4.212693707031763e-04	2.371103e-01	6.532001e-01	2.371932e-01
4.310349957031763e-04	2.098350e-01	6.199737e-01	2.099309e-01
4.408006207031763e-04	1.818253e-01	5.846952e-01	1.819288e-01
4.505662457031763e-04	1.530812e-01	5.473646e-01	1.531870e-01
4.603318707031763e-04	1.236027e-01	5.079821e-01	1.237053e-01
4.700974957031763e-04	9.338977e-02	4.665475e-01	9.348394e-02
4.798631207031763e-04	6.309322e-02	4.186104e-01	6.314263e-02
4.847459332031763e-04	4.784873e-02	3.909350e-01	4.784838e-02
4.896287457031763e-04	3.255920e-02	3.583414e-01	3.245980e-02
4.945115582031763e-04	1.723903e-02	3.178450e-01	1.693428e-02
4.973528668240035e-04	8.315830e-03	2.859488e-01	7.741595e-03
4.998591182216914e-04	4.425931e-04	2.457357e-01	-6.117405e-04
5.018963462134454e-04	-5.957406e-03	1.967019e-01	-7.725284e-03
5.040764921544794e-04	-1.280528e-02	1.183820e-01	-1.574807e-02
5.059344565545369e-04	-1.863933e-02	2.227502e-02	-2.281973e-02
5.079494062272334e-04	-2.496341e-02	-1.134536e-01	-3.043825e-02
5.088553286067206e-04	-2.780548e-02	-1.857950e-01	-3.346779e-02
5.094803751792325e-04	-2.976587e-02	-2.407977e-01	-3.485234e-02
5.098545446798070e-04	-3.093919e-02	-2.746579e-01	-3.478669e-02
5.102420179559273e-04	-3.215405e-02	-3.092147e-01	-3.312429e-02
5.106440830809957e-04	-3.341445e-02	-3.431849e-01	-2.921914e-02
5.109456315625678e-04	-3.435962e-02	-3.663952e-01	-2.445282e-02
5.112097445288223e-04	-3.518734e-02	-3.841625e-01	-1.882169e-02
5.115328282256927e-04	-3.619975e-02	-4.027010e-01	-1.081988e-02
5.118107271830765e-04	-3.707045e-02	-4.160397e-01	-3.610295e-03
5.120768589512711e-04	-3.790417e-02	-4.265647e-01	3.099549e-03
5.123411399917961e-04	-3.873199e-02	-4.351030e-01	9.123943e-03
5.127205860357971e-04	-3.992036e-02	-4.450279e-01	1.652268e-02
5.130884246747245e-04	-4.107217e-02	-4.527136e-01	2.225924e-02
5.136041399606557e-04	-4.268664e-02	-4.613127e-01	2.832565e-02
5.140727223385376e-04	-4.415317e-02	-4.677793e-01	3.238846e-02
5.146238235149291e-04	-4.587748e-02	-4.743063e-01	3.589810e-02
5.151706997605114e-04	-4.758802e-02	-4.801581e-01	3.860696e-02
5.158582041658703e-04	-4.973762e-02	-4.870177e-01	4.141526e-02
5.175923325801977e-04	-5.515547e-02	-5.032359e-01	4.746833e-02
5.234744749837638e-04	-7.348014e-02	-5.537238e-01	6.642235e-02
5.381229124837638e-04	-1.186246e-01	-6.668681e-01	1.122678e-01
5.485860821266209e-04	-1.505981e-01	-7.409260e-01	1.444977e-01
5.590492517694781e-04	-1.815985e-01	-8.118930e-01	1.757515e-01
5.695124214123352e-04	-2.116258e-01	-8.797689e-01	2.060294e-01
5.799755910551925e-04	-2.406801e-01	-9.445539e-01	2.353312e-01
5.904387606980496e-04	-2.687614e-01	-1.006248e+00	2.636569e-01
6.009019303409068e-04	-2.958695e-01	-1.064851e+00	2.910067e-01
6.113650999837639e-04	-3.220046e-01	-1.120363e+00	3.173804e-01
6.288037160551925e-04	-3.627342e-01	-1.207060e+00	3.585843e-01
6.462423321266211e-04	-3.982344e-01	-1.282570e+00	3.945885e-01
6.636809481980496e-04	-4.285052e-01	-1.346892e+00	4.253930e-01
6.811195642694783e-04	-4.535466e-01	-1.400026e+00	4.509979e-01
6.985581803409069e-04	-4.733586e-01	-1.441972e+00	4.714030e-01
7.159967964123355e-04	-4.879412e-01	-1.472730e+00	4.866086e-01
7.334354124837640e-04	-4.972944e-01	-1.492300e+00	4.966144e-01
7.529666624837640e-04	-4.993045e-01	-1.497000e+00	4.993737e-01
7.724979124837640e-04	-4.943045e-01	-1.486879e+00	4.951018e-01
7.920291624837640e-04	-4.822943e-01	-1.461936e+00	4.837989e-01
8.115604124837641e-04	-4.632741e-01	-1.422171e+00	4.654649e-01
8.310916624837641e-04	-4.372437e-01	-1.367584e+00	4.400997e-01
8.506229124837641e-04	-4.042032e-01	-1.298176e+00	4.077035e-01
8.701541624837641e-04	-3.641526e-01	-1.213947e+00	3.682761e-01
8.813148767694784e-04	-3.388968e-01	-1.160786e+00	3.433377e-01
8.924755910551927e-04	-3.123210e-01	-1.104149e+00	3.170692e-01
9.036363053409071e-04	-2.844251e-01	-1.044036e+00	2.894704e-01
9.147970196266214e-04	-2.552092e-01	-9.804475e-01	2.605415e-01
9.259577339123356e-04	-2.246732e-01	-9.133824e-01	2.302824e-01
9.371184481980499e-04	-1.928171e-01	-8.428412e-01	1.986931e-01
9.482791624837642e-04	-1.596409e-01	-7.688238e-01	1.657736e-01
9.531619749837642e-04	-1.449961e-01	-7.359023e-01	1.512181e-01
9.580447874837641e-04	-1.302497e-01	-7.017783e-01	1.365988e-01
9.629275999837641e-04	-1.154019e-01	-6.664517e-01	1.219157e-01
9.678104124837641e-04	-1.004525e-01	-6.299226e-01	1.071686e-01
9.726932249837641e-04	-8.540174e-02	-5.921910e-01	9.235772e-02
9.775760374837641e-04	-7.024944e-02	-5.532568e-01	7.748296e-02
9.824588499837640e-04	-5.499565e-02	-5.131201e-01	6.254434e-02
9.873416624837639e-04	-3.972543e-02	-4.687447e-01	4.788669e-02
9.922244749837638e-04	-2.441782e-02	-4.178275e-01	3.379710e-02
9.971072874837637e-04	-9.087224e-03	-3.561043e-01	2.104751e-02
9.996237868102450e-04	-1.181907e-03	-3.143816e-01	1.615842e-02
1.001549524655772e-03	4.867898e-03	-2.702319e-01	1.464030e-02
1.003321606425838e-03	1.043438e-02	-2.144158e-01	1.582161e-02
1.004818313330167e-03	1.513487e-02	-1.498158e-01	1.910818e-02
1.006529219588093e-03	2.050640e-02	-5.241045e-02	2.475738e-02
1.008107086898748e-03	2.545815e-02	5.993155e-02	3.068534e-02
1.009697212837123e-03	3.044585e-02	1.911139e-01	3.664697e-02
1.010361310570357e-03	3.252803e-02	2.486217e-01	3.872790e-02
1.010892783668647e-03	3.419398e-02	2.919692e-01	3.973928e-02
1.011308675081123e-03	3.549736e-02	3.204395e-01	3.995732e-02
1.011663302623292e-03	3.660856e-02	3.391576e-01	3.982200e-02
1.011948063492114e-03	3.750070e-02	3.500292e-01	3.969953e-02
1.012283241607241e-03	3.855065e-02	3.589080e-01	3.976795e-02
1.012658020637158e-03	3.972444e-02	3.658015e-01	4.017327e-02
1.012995114346700e-03	4.078001e-02	3.702199e-01	4.080072e-02
1.013276647862096e-03	4.166146e-02	3.730498e-01	4.147904e-02
1.013596461034190e-03	4.266261e-02	3.757461e-01	4.235197e-02
1.013946143627544e-03	4.375705e-02	3.783741e-01	4.336967e-02
1.014406243412445e-03	4.519677e-02	3.815667e-01	4.475812e-02
1.015678461273026e-03	4.917571e-02	3.897413e-01	4.868705e-02
1.021246394108422e-03	6.654944e-02	4.212742e-01	6.597883e-02
1.031012019108422e-03	9.681178e-02	4.691397e-01	9.616843e-02
1.045660456608422e-03	1.414868e-01	5.314982e-01	1.407987e-01
1.056821170894136e-03	1.751175e-01	5.740776e-01	1.744160e-01
1.067981885179850e-03	2.075073e-01	6.144193e-01	2.067972e-01
1.079142599465564e-03	2.386564e-01	6.525234e-01	2.379421e-01
1.090303313751278e-03	2.685648e-01	6.883897e-01	2.678508e-01
1.101464028036992e-03	2.972323e-01	7.220185e-01	2.965233e-01
1.112624742322706e-03	3.246591e-01	7.534095e-01	3.239597e-01
1.123785456608420e-03	3.508451e-01	7.825629e-01	3.501598e-01
1.143316706608420e-03	3.927424e-01	8.292783e-01	3.920874e-01
1.162847956608419e-03	4.277247e-01	8.682559e-01	4.271052e-01
1.182379206608419e-03	4.557920e-01	8.994957e-01	4.552131e-01
1.201910456608418e-03	4.769443e-01	9.229978e-01	4.764111e-01
1.221441706608418e-03	4.911817e-01	9.387621e-01	4.906992e-01
1.240972956608418e-03	4.985040e-01	9.467886e-01	4.980774e-01
1.260504206608417e-03	4.989114e-01	9.470774e-01	4.985458e-01
1.277942822679845e-03	4.916795e-01	9.394766e-01	4.913697e-01
1.295381438751274e-03	4.791164e-01	9.258392e-01	4.788610e-01
1.312820054822702e-03	4.612221e-01	9.061650e-01	4.610198e-01
1.330258670894130e-03	4.379966e-01	8.804540e-01	4.378460e-01
1.347697286965558e-03	4.094399e-01	8.487063e-01	4.093397e-01
1.365135903036987e-03	3.755521e-01	8.109219e-01	3.755009e-01
1.382574519108415e-03	3.363331e-01	7.671008e-01	3.363295e-01
1.393037688751271e-03	3.109972e-01	7.387872e-01	3.110206e-01
1.403500858394128e-03	2.846160e-01	7.084990e-01	2.846628e-01
1.413964028036985e-03	2.571895e-01	6.762360e-01	2.572562e-01
1.424427197679842e-03	2.287176e-01	6.419983e-01	2.288007e-01
1.434890367322699e-03	1.992003e-01	6.057859e-01	1.992963e-01
1.445353536965556e-03	1.686378e-01	5.675988e-01	1.687430e-01
1.455816706608413e-03	1.370298e-01	5.274370e-01	1.371408e-01
1.470465144108413e-03	9.225485e-02	4.648628e-01	9.234804e-02
1.480230769108413e-03	6.194729e-02	4.166405e-01	6.199389e-02
1.485113581608412e-03	4.669890e-02	3.886920e-01	4.669337e-02
1.489996394108412e-03	3.140657e-02	3.555689e-01	3.129590e-02
1.494879206608412e-03	1.608467e-02	3.141160e-01	1.575397e-02
1.497635223774740e-03	7.428890e-03	2.821193e-01	6.815693e-03
1.500104976352591e-03	-3.297929e-04	2.407040e-01	-1.453577e-03
1.502157524755251e-03	-6.777856e-03	1.888129e-01	-8.665222e-03
1.504334383668668e-03	-1.361518e-02	1.065248e-01	-1.672357e-02
1.506229295883788e-03	-1.956491e-02	4.353858e-03	-2.394703e-02
1.508148349748060e-03	-2.558761e-02	-1.290122e-01	-3.113043e-02
1.509019992049323e-03	-2.832197e-02	-2.000663e-01	-3.390546e-02
1.509591995887110e-03	-3.011590e-02	-2.508841e-01	-3.493152e-02
1.509949027873302e-03	-3.123544e-02	-2.831374e-01	-3.449311e-02
1.510399309164222e-03	-3.264715e-02	-3.226150e-01	-3.173376e-02
1.510812288198405e-03	-3.394168e-02	-3.562722e-01	-2.669813e-02
1.511090014020344e-03	-3.481212e-02	-3.763983e-01	-2.154333e-02
1.511364065875802e-03	-3.567094e-02	-3.934477e-01	-1.513573e-02
1.511672262395070e-03	-3.663663e-02	-4.096681e-01	-7.227638e-03
1.511937595193510e-03	-3.746791e-02	-4.212848e-01	-3.778932e-04
1.512204469848678e-03	-3.830391e-02	-4.309040e-01	6.104249e-03
1.512484279880336e-03	-3.918031e-02	-4.391442e-01	1.210071e-02
1.512873166206129e-03	-4.039816e-02	-4.484107e-01	1.906740e-02
1.513262361012071e-03	-4.161673e-02	-4.558740e-01	2.456640e-02
1.513744743717341e-03	-4.312673e-02	-4.633560e-01	2.966123e-02
1.514259084900434e-03	-4.473633e-02	-4.700685e-01	3.367692e-02
1.514793364250109e-03	-4.640783e-02	-4.761694e-01	3.679700e-02
1.515391110738148e-03	-4.827727e-02	-4.823990e-01	3.955321e-02
1.516091495037020e-03	-5.046684e-02	-4.892719e-01	4.228824e-02
1.517977385868005e-03	-5.635760e-02	-5.067158e-01	4.874022e-02
1.524892476125693e-03	-7.788358e-02	-5.653056e-01	7.092378e-02
1.539540913625692e-03	-1.229475e-01	-6.772058e-01	1.166355e-01
1.550701627911406e-03	-1.569876e-01	-7.555868e-01	1.509393e-01
1.561862342197120e-03	-1.898688e-01	-8.304627e-01	1.840844e-01
1.573023056482834e-03	-2.215911e-01	-9.018333e-01	2.160709e-01
1.584183770768548e-03	-2.521546e-01	-9.696987e-01	2.468987e-01
1.595344485054263e-03	-2.815591e-01	-1.034059e+00	2.765679e-01
1.606505199339977e-03	-3.098048e-01	-1.094914e+00	3.050784e-01
1.617665913625691e-03	-3.368916e-01	-1.152264e+00	3.324302e-01
1.635802074339976e-03	-3.775688e-01	-1.238655e+00	3.736188e-01
1.653938235054261e-03	-4.124403e-01	-1.312690e+00	4.090311e-01
1.672074395768547e-03	-4.415063e-01	-1.374369e+00	4.386673e-01
1.690210556482832e-03	-4.647667e-01	-1.423693e+00	4.625272e-01
1.708346717197117e-03	-4.822215e-01	-1.460661e+00	4.806109e-01
1.726482877911403e-03	-4.938707e-01	-1.485273e+00	4.929184e-01
1.744619038625688e-03	-4.997143e-01	-1.497529e+00	4.994497e-01
1.763452743982830e-03	-4.975573e-01	-1.493530e+00	4.980151e-01
1.782286449339973e-03	-4.890047e-01	-1.475961e+00	4.901619e-01
1.801120154697115e-03	-4.740564e-01	-1.444825e+00	4.758899e-01
1.819953860054258e-03	-4.527124e-01	-1.400119e+00	4.551992e-01
1.838787565411400e-03	-4.249728e-01	-1.341844e+00	4.280898e-01
1.857621270768543e-03	-3.908375e-01	-1.270001e+00	3.945617e-01
1.876454976125685e-03	-3.503065e-01	-1.184588e+00	3.546149e-01
1.887615690411399e-03	-3.240844e-01	-1.129333e+00	3.286979e-01
1.898776404697113e-03	-2.966247e-01	-1.070636e+00	3.015362e-01
1.909937118982827e-03	-2.679274e-01	-1.008497e+00	2.731298e-01
1.921097833268541e-03	-2.379925e-01	-9.429172e-01	2.434787e-01
1.932258547554255e-03	-2.068200e-01	-8.738957e-01	2.125829e-01
1.943419261839969e-03	-1.744099e-01	-8.014328e-01	1.804424e-01
1.954579976125683e-03	-1.407622e-01	-7.255285e-01	1.470572e-01
1.969228413625683e-03	-9.607062e-02	-6.193990e-01	1.028321e-01
1.978994038625683e-03	-6.580074e-02	-5.424316e-01	7.306996e-02
1.983876851125683e-03	-5.056577e-02	-5.006786e-01	5.825657e-02
1.988759663625683e-03	-3.528321e-02	-4.548888e-01	4.370236e-02
1.993642476125683e-03	-1.996744e-02	-4.019543e-01	2.984337e-02
1.997535066626105e-03	-7.743507e-03	-3.501249e-01	2.007975e-02
1.999943051436145e-03	-1.789092e-04	-3.082091e-01	1.571914e-02
2.001720475082886e-03	5.404927e-03	-2.657367e-01	1.461137e-02
2.003512851181149e-03	1.103505e-02	-2.063645e-01	1.622763e-02
2.005203578130003e-03	1.634461e-02	-1.298949e-01	2.028074e-02
2.006802938389922e-03	2.136555e-02	-3.462700e-02	2.574946e-02
2.008418317800070e-03	2.643459e-02	8.451321e-02	3.186567e-02
2.009948058279488e-03	3.123240e-02	2.126576e-01	3.745613e-02
2.010568711226017e-03	3.317819e-02	2.654378e-01	3.917979e-02
2.011128714441400e-03	3.493340e-02	3.083243e-01	3.992491e-02
2.011488797005489e-03	3.606178e-02	3.304409e-01	3.994072e-02
2.011802930790115e-03	3.704602e-02	3.447167e-01	3.977561e-02
2.012103684193273e-03	3.798820e-02	3.544965e-01	3.971008e-02
2.012432414197615e-03	3.901787e-02	3.619084e-01	3.990148e-02
2.012822578727216e-03	4.023976e-02	3.680889e-01	4.045916e-02
2.013102150871969e-03	4.111514e-02	3.713625e-01	4.104697e-02
2.013392660889853e-03	4.202465e-02	3.740628e-01	4.178932e-02
2.013713177281065e-03	4.302793e-02	3.766457e-01	4.268776e-02
2.014103950156969e-03	4.425089e-02	3.794911e-01	4.384234e-02
2.014580023147141e-03	4.574046e-02	3.827256e-01	4.529025e-02
2.015958340856409e-03	5.005064e-02	3.914672e-01	4.955604e-02
2.019127814500803e-03	5.994724e-02	4.098273e-01	5.940291e-02
2.027981260577603e-03	8.745357e-02	4.549811e-01	8.682592e-02
2.042629698077602e-03	1.323295e-01	5.192425e-01	1.316478e-01
2.053790412363316e-03	1.661692e-01	5.625914e-01	1.654718e-01
2.064951126649030e-03	1.988084e-01	6.036607e-01	1.981002e-01
2.076111840934744e-03	2.302472e-01	6.424503e-01	2.295331e-01
2.087272555220459e-03	2.604856e-01	6.789602e-01	2.597704e-01
2.098433269506173e-03	2.895235e-01	7.131904e-01	2.888122e-01
2.109593983791887e-03	3.173610e-01	7.451409e-01	3.166584e-01
2.120754698077601e-03	3.439980e-01	7.748117e-01	3.433091e-01
2.139588403434743e-03	3.853241e-01	8.209843e-01	3.846630e-01
2.158422108791886e-03	4.203004e-01	8.600207e-01	4.196720e-01
2.177255814149028e-03	4.489268e-01	8.919211e-01	4.483362e-01
2.196089519506171e-03	4.712033e-01	9.166854e-01	4.706554e-01
2.214923224863313e-03	4.871300e-01	9.343137e-01	4.866299e-01
2.233756930220456e-03	4.967068e-01	9.448059e-01	4.962594e-01
2.252590635577598e-03	4.999337e-01	9.481620e-01	4.995441e-01
2.270726796291883e-03	4.951150e-01	9.431990e-01	4.947831e-01
2.288862957006169e-03	4.844446e-01	9.316447e-01	4.841692e-01
2.306999117720454e-03	4.679225e-01	9.134992e-01	4.677023e-01
2.325135278434739e-03	4.455487e-01	8.887624e-01	4.453826e-01
2.343271439149025e-03	4.173232e-01	8.574344e-01	4.172099e-01
2.361407599863310e-03	3.832459e-01	8.195151e-01	3.831843e-01
2.379543760577595e-03	3.433170e-01	7.750046e-01	3.433058e-01
2.390704474863309e-03	3.166361e-01	7.453387e-01	3.166544e-01
2.401865189149023e-03	2.887587e-01	7.134161e-01	2.888025e-01
2.413025903434737e-03	2.596848e-01	6.792369e-01	2.597501e-01
2.424186617720452e-03	2.294145e-01	6.428010e-01	2.294972e-01
2.435347332006166e-03	1.979478e-01	6.041083e-01	1.980438e-01
2.446508046291880e-03	1.652847e-01	5.631590e-01	1.653899e-01
2.457668760577594e-03	1.314251e-01	5.199530e-01	1.315355e-01
2.472317198077593e-03	8.653023e-02	4.562581e-01	8.661789e-02
2.477200010577593e-03	7.138354e-02	4.324540e-01	7.145002e-02
2.482082823077593e-03	5.616965e-02	4.064621e-01	5.620012e-02
2.486965635577593e-03	4.090291e-02	3.769397e-01	4.086671e-02
2.491848448077593e-03	2.559766e-02	3.416851e-01	2.543020e-02
2.495470444400255e-03	1.422810e-02	3.083802e-01	1.385411e-02
2.498183504725868e-03	5.706565e-03	2.745636e-01	5.012332e-03
2.500361921751035e-03	-1.137010e-03	2.354139e-01	-2.334773e-03
2.502523926731424e-03	-7.928818e-03	1.766342e-01	-1.000205e-02
2.504736405719168e-03	-1.487766e-02	8.671314e-02	-1.825256e-02
2.506695299277315e-03	-2.102770e-02	-2.631334e-02	-2.569890e-02
2.508612511296983e-03	-2.704380e-02	-1.670741e-01	-3.258980e-02
2.509409433431634e-03	-2.954339e-02	-2.344943e-01	-3.462433e-02
2.509889568735621e-03	-3.104901e-02	-2.777459e-01	-3.465386e-02
2.510254591567301e-03	-3.219346e-02	-3.102416e-01	-3.306869e-02
2.510660807599655e-03	-3.346688e-02	-3.444810e-01	-2.902983e-02
2.510947944370466e-03	-3.436686e-02	-3.664797e-01	-2.442456e-02
2.511231973041487e-03	-3.525700e-02	-3.854404e-01	-1.830540e-02
2.511558306665762e-03	-3.627958e-02	-4.039972e-01	-1.018982e-02
2.511825190717374e-03	-3.711576e-02	-4.166541e-01	-3.259354e-03
2.512090293202995e-03	-3.794625e-02	-4.270228e-01	3.405481e-03
2.512353297825462e-03	-3.877007e-02	-4.354325e-01	9.360001e-03
2.512748070967231e-03	-4.000644e-02	-4.456369e-01	1.697662e-02
