time	V(v1)	V(v2)	V(vo1)	V(vo2)
0.000000000000000e+00	0.000000e+00	0.000000e+00	-2.666963e-04	-1.092112e-08
3.046299448842189e-07	0.000000e+00	1.914060e-05	-2.683747e-04	2.186016e-05
6.092598897684378e-07	0.000000e+00	3.828097e-05	-2.727830e-04	5.306868e-05
9.138898346526567e-07	0.000000e+00	5.742110e-05	-2.799214e-04	9.361465e-05
1.218519779536876e-06	0.000000e+00	7.656099e-05	-2.897897e-04	1.434981e-04
1.523149724421095e-06	0.000000e+00	9.570064e-05	-3.023880e-04	2.027189e-04
1.827779669305313e-06	0.000000e+00	1.148401e-04	-3.177162e-04	2.712772e-04
2.132409614189532e-06	0.000000e+00	1.339792e-04	-3.357745e-04	3.491730e-04
2.938787365460712e-05	0.000000e+00	1.836020e-03	-2.025451e-03	7.114980e-03
5.639779196136777e-05	0.000000e+00	3.469881e-03	-3.613106e-03	1.346161e-02
1.104176285748891e-04	0.000000e+00	6.394437e-03	-6.400594e-03	2.459762e-02
1.706422592213197e-04	0.000000e+00	8.782436e-03	-8.888196e-03	3.452564e-02
1.960136967358106e-04	0.000000e+00	9.430191e-03	-9.628269e-03	3.747453e-02
2.146021732640146e-04	0.000000e+00	9.753685e-03	-9.974550e-03	3.885063e-02
2.306453962194502e-04	0.000000e+00	9.926148e-03	-1.015856e-02	3.957864e-02
2.459780565339465e-04	0.000000e+00	9.996807e-03	-1.023357e-02	3.987090e-02
2.635048491864648e-04	0.000000e+00	9.964021e-03	-1.019469e-02	3.970644e-02
2.869800172761289e-04	0.000000e+00	9.731274e-03	-9.927742e-03	3.862689e-02
3.250067420085914e-04	0.000000e+00	8.909873e-03	-9.011359e-03	3.494352e-02
3.854095663603270e-04	0.000000e+00	6.593794e-03	-6.684266e-03	2.561142e-02
4.435493789145434e-04	0.000000e+00	3.472994e-03	-3.699355e-03	1.365632e-02
4.946444728315871e-04	0.000000e+00	3.364342e-04	-6.640274e-04	1.509497e-03
5.459068830545214e-04	0.000000e+00	-2.844584e-03	2.444159e-03	-1.092051e-02
5.936893316542317e-04	0.000000e+00	-5.552533e-03	5.074748e-03	-2.143295e-02
6.507695610830674e-04	0.000000e+00	-8.118496e-03	7.654689e-03	-3.173347e-02
6.861049381973210e-04	0.000000e+00	-9.204897e-03	8.842316e-03	-3.646890e-02
7.072700952735781e-04	0.000000e+00	-9.641753e-03	9.323136e-03	-3.838218e-02
7.230261398071225e-04	0.000000e+00	-9.856723e-03	9.549124e-03	-3.927833e-02
7.408772067118656e-04	0.000000e+00	-9.983577e-03	9.674763e-03	-3.977185e-02
7.616060884429572e-04	0.000000e+00	-9.973423e-03	9.664821e-03	-3.972154e-02
7.838919474231011e-04	0.000000e+00	-9.774119e-03	9.443737e-03	-3.882598e-02
8.200263053978225e-04	0.000000e+00	-9.047567e-03	8.628690e-03	-3.554866e-02
8.776191891070464e-04	0.000000e+00	-6.953748e-03	6.499559e-03	-2.700888e-02
9.384567277734262e-04	0.000000e+00	-3.771228e-03	3.446855e-03	-1.478096e-02
9.901461481436750e-04	0.000000e+00	-6.187403e-04	4.051698e-04	-2.607836e-03
1.041988207608694e-03	0.000000e+00	2.607700e-03	-2.745570e-03	9.993050e-03
1.089755863362718e-03	0.000000e+00	5.345310e-03	-5.404572e-03	2.061970e-02
1.147148581289176e-03	0.000000e+00	7.983570e-03	-8.043577e-03	3.115684e-02
1.184760609112639e-03	0.000000e+00	9.171562e-03	-9.336785e-03	3.631379e-02
1.206282073371523e-03	0.000000e+00	9.625100e-03	-9.838483e-03	3.831046e-02
1.222283142663139e-03	0.000000e+00	9.848742e-03	-1.007406e-02	3.924484e-02
1.239975338959691e-03	0.000000e+00	9.980170e-03	-1.020370e-02	3.975447e-02
1.261269855249975e-03	0.000000e+00	9.974940e-03	-1.019877e-02	3.972392e-02
1.283344998055922e-03	0.000000e+00	9.781323e-03	-9.985466e-03	3.885957e-02
1.319143336083449e-03	0.000000e+00	9.071058e-03	-9.187891e-03	3.565227e-02
1.376233620575406e-03	0.000000e+00	7.016048e-03	-7.092705e-03	2.724837e-02
1.437758512847607e-03	0.000000e+00	3.811823e-03	-4.017532e-03	1.493023e-02
1.489537667751684e-03	0.000000e+00	6.568943e-04	-9.756345e-04	2.756132e-03
1.541490971854181e-03	0.000000e+00	-2.577526e-03	2.182686e-03	-9.875166e-03
1.589216801204329e-03	0.000000e+00	-5.316654e-03	4.843500e-03	-2.050914e-02
1.646532108870993e-03	0.000000e+00	-7.960184e-03	7.481563e-03	-3.104260e-02
1.685399272798068e-03	0.000000e+00	-9.187480e-03	8.817734e-03	-3.637087e-02
1.706751252589863e-03	0.000000e+00	-9.633053e-03	9.313705e-03	-3.834472e-02
1.722635887311170e-03	0.000000e+00	-9.852557e-03	9.544703e-03	-3.926085e-02
1.740403375539015e-03	0.000000e+00	-9.981827e-03	9.672464e-03	-3.976288e-02
1.761429459392063e-03	0.000000e+00	-9.974225e-03	9.665117e-03	-3.972281e-02
1.783604629554194e-03	0.000000e+00	-9.777918e-03	9.448133e-03	-3.884371e-02
1.819562503822251e-03	0.000000e+00	-9.059940e-03	8.642280e-03	-3.560323e-02
1.876891547272845e-03	0.000000e+00	-6.986531e-03	6.531177e-03	-2.713560e-02
1.938036767693710e-03	0.000000e+00	-3.795654e-03	3.469537e-03	-1.487178e-02
1.989798156566774e-03	0.000000e+00	-6.405619e-04	4.263592e-04	-2.692611e-03
2.041723198819923e-03	0.000000e+00	2.591621e-03	-2.729890e-03	9.930362e-03
2.089439310686432e-03	0.000000e+00	5.328490e-03	-5.388252e-03	2.055450e-02
2.146833723633793e-03	0.000000e+00	7.971641e-03	-8.030480e-03	3.110457e-02
2.184734178709855e-03	0.000000e+00	9.170900e-03	-9.335570e-03	3.630893e-02
2.206262665141884e-03	0.000000e+00	9.624768e-03	-9.838124e-03	3.830904e-02
2.222268554057270e-03	0.000000e+00	9.848583e-03	-1.007389e-02	3.924417e-02
2.239957641706144e-03	0.000000e+00	9.980100e-03	-1.020361e-02	3.975412e-02
2.261263255419700e-03	0.000000e+00	9.974970e-03	-1.019878e-02	3.972397e-02
2.283334261815868e-03	0.000000e+00	9.781464e-03	-9.985629e-03	3.886023e-02
2.319126001531758e-03	0.000000e+00	9.071516e-03	-9.188395e-03	3.565429e-02
2.376206405923188e-03	0.000000e+00	7.017266e-03	-7.093972e-03	2.725344e-02
2.437715538816542e-03	0.000000e+00	3.814319e-03	-4.019938e-03	1.493986e-02
2.489520656707208e-03	0.000000e+00	6.579609e-04	-9.766546e-04	2.760216e-03
2.541503965304723e-03	0.000000e+00	-2.578315e-03	2.183445e-03	-9.878197e-03
2.589226009169018e-03	0.000000e+00	-5.317144e-03	4.843914e-03	-2.051080e-02
2.646566238240840e-03	0.000000e+00	-7.961483e-03	7.482902e-03	-3.104794e-02
2.685406237243055e-03	0.000000e+00	-9.187654e-03	8.817965e-03	-3.637179e-02
2.706756370957545e-03	0.000000e+00	-9.633140e-03	9.313799e-03	-3.834509e-02
2.722639736275422e-03	0.000000e+00	-9.852599e-03	9.544747e-03	-3.926102e-02
2.740408047384040e-03	0.000000e+00	-9.981845e-03	9.672487e-03	-3.976298e-02
2.761431201162309e-03	0.000000e+00	-9.974217e-03	9.665113e-03	-3.972280e-02
2.783607462889779e-03	0.000000e+00	-9.777880e-03	9.448091e-03	-3.884353e-02
2.819567077855853e-03	0.000000e+00	-9.059818e-03	8.642145e-03	-3.560269e-02
2.876898725070614e-03	0.000000e+00	-6.986208e-03	6.530902e-03	-2.713450e-02
2.938029911096773e-03	0.000000e+00	-3.796052e-03	3.469917e-03	-1.487330e-02
2.989814762607875e-03	0.000000e+00	-6.395206e-04	4.253303e-04	-2.688496e-03
3.041765493294015e-03	0.000000e+00	2.594188e-03	-2.732357e-03	9.940225e-03
3.089495698849890e-03	0.000000e+00	5.331487e-03	-5.391103e-03	2.056589e-02
3.146904916224361e-03	0.000000e+00	7.974341e-03	-8.033306e-03	3.111585e-02
3.184761682562269e-03	0.000000e+00	9.171589e-03	-9.336369e-03	3.631211e-02
3.206282861635099e-03	0.000000e+00	9.625113e-03	-9.838497e-03	3.831052e-02
3.222283735183417e-03	0.000000e+00	9.848748e-03	-1.007406e-02	3.924487e-02
3.239976057747373e-03	0.000000e+00	9.980173e-03	-1.020371e-02	3.975449e-02
3.261270123305555e-03	0.000000e+00	9.974939e-03	-1.019877e-02	3.972392e-02
3.283345434113706e-03	0.000000e+00	9.781318e-03	-9.985460e-03	3.885955e-02
3.319144040132975e-03	0.000000e+00	9.071039e-03	-9.187871e-03	3.565219e-02
3.376234725898488e-03	0.000000e+00	7.015998e-03	-7.092771e-03	2.724863e-02
3.437725225531189e-03	0.000000e+00	3.813756e-03	-4.019402e-03	1.493771e-02
3.489553008427684e-03	0.000000e+00	6.559326e-04	-9.746652e-04	2.752258e-03
3.541559712697657e-03	0.000000e+00	-2.581699e-03	2.186702e-03	-9.891218e-03
3.589302186751895e-03	0.000000e+00	-5.321197e-03	4.847924e-03	-2.052682e-02
3.646609128470979e-03	0.000000e+00	-7.963113e-03	7.484865e-03	-3.105578e-02
3.685390487444038e-03	0.000000e+00	-9.187263e-03	8.817662e-03	-3.637059e-02
3.706744796049126e-03	0.000000e+00	-9.632945e-03	9.313587e-03	-3.834425e-02
3.722631032078067e-03	0.000000e+00	-9.852505e-03	9.544648e-03	-3.926063e-02
3.740397482333075e-03	0.000000e+00	-9.981805e-03	9.672435e-03	-3.976278e-02
3.761427262263239e-03	0.000000e+00	-9.974235e-03	9.665119e-03	-3.972283e-02
3.783601055486128e-03	0.000000e+00	-9.777965e-03	9.448187e-03	-3.884393e-02
3.819556733967681e-03	0.000000e+00	-9.060094e-03	8.642448e-03	-3.560390e-02
3.876882492884321e-03	0.000000e+00	-6.986938e-03	6.531599e-03	-2.713730e-02
3.938022734230813e-03	0.000000e+00	-3.796469e-03	3.470253e-03	-1.487464e-02
3.989832032461208e-03	0.000000e+00	-6.384377e-04	4.242598e-04	-2.684215e-03
4.041807783334482e-03	0.000000e+00	2.596754e-03	-2.734809e-03	9.950026e-03
4.089560950245995e-03	0.000000e+00	5.334956e-03	-5.394420e-03	2.057914e-02
4.146975342117074e-03	0.000000e+00	7.977010e-03	-8.036163e-03	3.112725e-02
4.184780546368433e-03	0.000000e+00	9.172061e-03	-9.336956e-03	3.631445e-02
4.206296714023377e-03	0.000000e+00	9.625348e-03	-9.838752e-03	3.831153e-02
4.222294147784594e-03	0.000000e+00	9.848861e-03	-1.007418e-02	3.924534e-02
4.239988689409513e-03	0.000000e+00	9.980222e-03	-1.020377e-02	3.975474e-02
4.261274833976821e-03	0.000000e+00	9.974917e-03	-1.019876e-02	3.972388e-02
4.283353097166239e-03	0.000000e+00	9.781218e-03	-9.985344e-03	3.885908e-02
4.319156412707419e-03	0.000000e+00	9.070711e-03	-9.187511e-03	3.565074e-02
4.376254150096599e-03	0.000000e+00	7.015129e-03	-7.091935e-03	2.724528e-02
4.437735559372146e-03	0.000000e+00	3.813156e-03	-4.018808e-03	1.493534e-02
4.489584453410205e-03	0.000000e+00	6.539611e-04	-9.727322e-04	2.744525e-03
4.541612367074577e-03	0.000000e+00	-2.584895e-03	2.189772e-03	-9.903492e-03
4.589377556171007e-03	0.000000e+00	-5.325206e-03	4.851817e-03	-2.054237e-02
4.646674042370484e-03	0.000000e+00	-7.965580e-03	7.487599e-03	-3.106669e-02
4.685395573521402e-03	0.000000e+00	-9.187389e-03	8.817903e-03	-3.637154e-02
4.706748533905165e-03	0.000000e+00	-9.633007e-03	9.313656e-03	-3.834452e-02
4.722633842892936e-03	0.000000e+00	-9.852536e-03	9.544681e-03	-3.926076e-02
4.740400894050596e-03	0.000000e+00	-9.981818e-03	9.672452e-03	-3.976284e-02
4.761428534234543e-03	0.000000e+00	-9.974229e-03	9.665119e-03	-3.972282e-02
4.783603124601208e-03	0.000000e+00	-9.777937e-03	9.448157e-03	-3.884380e-02
4.819560074278353e-03	0.000000e+00	-9.060005e-03	8.642351e-03	-3.560351e-02
4.876887734699235e-03	0.000000e+00	-6.986702e-03	6.531365e-03	-2.713636e-02
4.938027715777810e-03	0.000000e+00	-3.796180e-03	3.469938e-03	-1.487338e-02
4.989857154561381e-03	0.000000e+00	-6.368625e-04	4.227132e-04	-2.678029e-03
5.041853052243321e-03	0.000000e+00	2.599501e-03	-2.737442e-03	9.960551e-03
5.089628322233941e-03	0.000000e+00	5.338536e-03	-5.397850e-03	2.059284e-02
5.147047119109984e-03	0.000000e+00	7.979729e-03	-8.039083e-03	3.113891e-02
5.184797946516380e-03	0.000000e+00	9.172497e-03	-9.337509e-03	3.631666e-02
5.206309491890034e-03	0.000000e+00	9.625566e-03	-9.838989e-03	3.831247e-02
5.222303752799802e-03	0.000000e+00	9.848965e-03	-1.007429e-02	3.924578e-02
5.240000341566900e-03	0.000000e+00	9.980269e-03	-1.020383e-02	3.975497e-02
5.261279179330494e-03	0.000000e+00	9.974899e-03	-1.019876e-02	3.972385e-02
5.283360165935355e-03	0.000000e+00	9.781125e-03	-9.985237e-03	3.885865e-02
5.319167825723846e-03	0.000000e+00	9.070409e-03	-9.187179e-03	3.564941e-02
5.376272067620726e-03	0.000000e+00	7.014326e-03	-7.091158e-03	2.724216e-02
5.437746763306680e-03	0.000000e+00	3.812505e-03	-4.018165e-03	1.493276e-02
5.489613073393890e-03	0.000000e+00	6.521667e-04	-9.709739e-04	2.737492e-03
5.541658247653772e-03	0.000000e+00	-2.587680e-03	2.192447e-03	-9.914185e-03
5.589443986445692e-03	0.000000e+00	-5.328739e-03	4.855210e-03	-2.055592e-02
5.646743112977477e-03	0.000000e+00	-7.968202e-03	7.490425e-03	-3.107797e-02
5.685410942017808e-03	0.000000e+00	-9.187770e-03	8.818398e-03	-3.637352e-02
5.706759828655233e-03	0.000000e+00	-9.633198e-03	9.313862e-03	-3.834534e-02
5.722642336441280e-03	0.000000e+00	-9.852627e-03	9.544777e-03	-3.926114e-02
5.740411203462833e-03	0.000000e+00	-9.981857e-03	9.672503e-03	-3.976304e-02
5.761432377817439e-03	0.000000e+00	-9.974212e-03	9.665112e-03	-3.972279e-02
5.783609376952790e-03	0.000000e+00	-9.777855e-03	9.448061e-03	-3.884342e-02
5.819570167845590e-03	0.000000e+00	-9.059737e-03	8.642056e-03	-3.560233e-02
5.876903574014208e-03	0.000000e+00	-6.985990e-03	6.530673e-03	-2.713359e-02
5.938038272127816e-03	0.000000e+00	-3.795566e-03	3.469331e-03	-1.487095e-02
5.989883172216818e-03	0.000000e+00	-6.352310e-04	4.211151e-04	-2.671637e-03
6.041894274091929e-03	0.000000e+00	2.602001e-03	-2.739844e-03	9.970151e-03
6.089688380156159e-03	0.000000e+00	5.341726e-03	-5.400910e-03	2.060506e-02
6.147110774602519e-03	0.000000e+00	7.982139e-03	-8.041677e-03	3.114926e-02
6.184812574756017e-03	0.000000e+00	9.172863e-03	-9.337980e-03	3.631854e-02
6.206320234415142e-03	0.000000e+00	9.625750e-03	-9.839186e-03	3.831326e-02
6.222311827950006e-03	0.000000e+00	9.849054e-03	-1.007439e-02	3.924615e-02
6.240010137934913e-03	0.000000e+00	9.980307e-03	-1.020388e-02	3.975516e-02
6.261282832592190e-03	0.000000e+00	9.974882e-03	-1.019875e-02	3.972383e-02
6.283366108845334e-03	0.000000e+00	9.781048e-03	-9.985147e-03	3.885829e-02
6.319177420931100e-03	0.000000e+00	9.070155e-03	-9.186900e-03	3.564829e-02
6.376287131162124e-03	0.000000e+00	7.013652e-03	-7.090501e-03	2.723953e-02
6.437757033597552e-03	0.000000e+00	3.811909e-03	-4.017578e-03	1.493041e-02
6.489636753656141e-03	0.000000e+00	6.506820e-04	-9.695200e-04	2.731676e-03
6.541695079436967e-03	0.000000e+00	-2.589915e-03	2.194594e-03	-9.922766e-03
6.589497715706178e-03	0.000000e+00	-5.331595e-03	4.857938e-03	-2.056682e-02
6.646804192902193e-03	0.000000e+00	-7.970520e-03	7.492892e-03	-3.108781e-02
6.685428389509958e-03	0.000000e+00	-9.188203e-03	8.818929e-03	-3.637564e-02
6.706772651586021e-03	0.000000e+00	-9.633414e-03	9.314097e-03	-3.834627e-02
6.722651979269583e-03	0.000000e+00	-9.852731e-03	9.544887e-03	-3.926158e-02
6.740422908032828e-03	0.000000e+00	-9.981900e-03	9.672561e-03	-3.976326e-02
6.761436741516195e-03	0.000000e+00	-9.974193e-03	9.665105e-03	-3.972276e-02
6.783616475371128e-03	0.000000e+00	-9.777762e-03	9.447953e-03	-3.884298e-02
6.819581627232775e-03	0.000000e+00	-9.059432e-03	8.641721e-03	-3.560098e-02
6.876921556433660e-03	0.000000e+00	-6.985182e-03	6.529890e-03	-2.713045e-02
6.938049754722729e-03	0.000000e+00	-3.794899e-03	3.468683e-03	-1.486836e-02
6.989905944348458e-03	0.000000e+00	-6.338031e-04	4.197180e-04	-2.666048e-03
7.041927986916425e-03	0.000000e+00	2.604047e-03	-2.741809e-03	9.978009e-03
7.089736973317062e-03	0.000000e+00	5.344307e-03	-5.403387e-03	2.061496e-02
7.147162018886786e-03	0.000000e+00	7.984078e-03	-8.043767e-03	3.115760e-02
7.184823874460889e-03	0.000000e+00	9.173146e-03	-9.338348e-03	3.632001e-02
7.206328532705287e-03	0.000000e+00	9.625890e-03	-9.839339e-03	3.831387e-02
7.222318065822761e-03	0.000000e+00	9.849122e-03	-1.007446e-02	3.924643e-02
7.240017705497292e-03	0.000000e+00	9.980337e-03	-1.020392e-02	3.975531e-02
7.261285654671387e-03	0.000000e+00	9.974870e-03	-1.019875e-02	3.972381e-02
7.283370699634246e-03	0.000000e+00	9.780987e-03	-9.985077e-03	3.885801e-02
7.319184833032777e-03	0.000000e+00	9.069960e-03	-9.186684e-03	3.564742e-02
7.376298767335488e-03	0.000000e+00	7.013130e-03	-7.089993e-03	2.723749e-02
7.437765484778222e-03	0.000000e+00	3.811418e-03	-4.017094e-03	1.492847e-02
7.489654983224332e-03	0.000000e+00	6.495390e-04	-9.684009e-04	2.727200e-03
7.541722812361254e-03	0.000000e+00	-2.591598e-03	2.196210e-03	-9.929228e-03
7.589538432522101e-03	0.000000e+00	-5.333759e-03	4.859998e-03	-2.057505e-02
7.646852608379042e-03	0.000000e+00	-7.972357e-03	7.494835e-03	-3.109557e-02
7.685443846272550e-03	0.000000e+00	-9.188586e-03	8.819389e-03	-3.637747e-02
7.706784011679013e-03	0.000000e+00	-9.633605e-03	9.314304e-03	-3.834709e-02
7.722660522136309e-03	0.000000e+00	-9.852822e-03	9.544984e-03	-3.926196e-02
7.740433277607945e-03	0.000000e+00	-9.981940e-03	9.672612e-03	-3.976346e-02
7.761440607474876e-03	0.000000e+00	-9.974175e-03	9.665098e-03	-3.972273e-02
7.783622764112368e-03	0.000000e+00	-9.777679e-03	9.447857e-03	-3.884259e-02
7.819591779476564e-03	0.000000e+00	-9.059162e-03	8.641424e-03	-3.559979e-02
7.876937487460507e-03	0.000000e+00	-6.984466e-03	6.529196e-03	-2.712766e-02
7.938059858722557e-03	0.000000e+00	-3.794312e-03	3.468116e-03	-1.486609e-02
7.989923938839493e-03	0.000000e+00	-6.326748e-04	4.186147e-04	-2.661634e-03
8.041953527736014e-03	0.000000e+00	2.605596e-03	-2.743299e-03	9.983966e-03
8.089773599254498e-03	0.000000e+00	5.346252e-03	-5.405255e-03	2.062242e-02
8.147200432273106e-03	0.000000e+00	7.985531e-03	-8.045335e-03	3.116385e-02
8.184832036460593e-03	0.000000e+00	9.173349e-03	-9.338617e-03	3.632108e-02
8.206334526798548e-03	0.000000e+00	9.625993e-03	-9.839450e-03	3.831431e-02
8.222322571645905e-03	0.000000e+00	9.849170e-03	-1.007451e-02	3.924663e-02
8.240023171846890e-03	0.000000e+00	9.980358e-03	-1.020395e-02	3.975542e-02
8.261287693161985e-03	0.000000e+00	9.974861e-03	-1.019874e-02	3.972379e-02
8.283374015726912e-03	0.000000e+00	9.780944e-03	-9.985028e-03	3.885780e-02
8.319190187050796e-03	0.000000e+00	9.069818e-03	-9.186529e-03	3.564680e-02
8.376307172490115e-03	0.000000e+00	7.012754e-03	-7.089625e-03	2.723602e-02
8.437771928300431e-03	0.000000e+00	3.811043e-03	-4.016725e-03	1.492700e-02
8.489668225050647e-03	0.000000e+00	6.487087e-04	-9.675884e-04	2.723949e-03
8.541742606047828e-03	0.000000e+00	-2.592799e-03	2.197363e-03	-9.933837e-03
8.589567669550354e-03	0.000000e+00	-5.335313e-03	4.861474e-03	-2.058095e-02
8.646888018157304e-03	0.000000e+00	-7.973700e-03	7.496251e-03	-3.110122e-02
8.685455807838704e-03	0.000000e+00	-9.188883e-03	8.819742e-03	-3.637888e-02
8.706792803097370e-03	0.000000e+00	-9.633754e-03	9.314464e-03	-3.834773e-02
8.722667133400799e-03	0.000000e+00	-9.852894e-03	9.545059e-03	-3.926226e-02
8.740441302646217e-03	0.000000e+00	-9.981970e-03	9.672652e-03	-3.976362e-02
8.761443599331776e-03	0.000000e+00	-9.974161e-03	9.665093e-03	-3.972271e-02
8.783627630952440e-03	0.000000e+00	-9.777615e-03	9.447783e-03	-3.884229e-02
8.819599636248480e-03	0.000000e+00	-9.058952e-03	8.641195e-03	-3.559887e-02
8.876949816286157e-03	0.000000e+00	-6.983911e-03	6.528659e-03	-2.712551e-02
8.938067738159772e-03	0.000000e+00	-3.793853e-03	3.467676e-03	-1.486433e-02
8.989937115119973e-03	0.000000e+00	-6.318485e-04	4.178071e-04	-2.658403e-03
9.041971707364514e-03	0.000000e+00	2.606699e-03	-2.744360e-03	9.988206e-03
9.089799634152284e-03	0.000000e+00	5.347634e-03	-5.406583e-03	2.062772e-02
9.147227568280755e-03	0.000000e+00	7.986558e-03	-8.046445e-03	3.116828e-02
9.184837593075980e-03	0.000000e+00	9.173489e-03	-9.338802e-03	3.632182e-02
9.206338607558692e-03	0.000000e+00	9.626062e-03	-9.839525e-03	3.831460e-02
9.222325639210046e-03	0.000000e+00	9.849204e-03	-1.007454e-02	3.924678e-02
9.240026893360120e-03	0.000000e+00	9.980373e-03	-1.020397e-02	3.975550e-02
9.261289080970519e-03	0.000000e+00	9.974854e-03	-1.019874e-02	3.972378e-02
9.283376273328861e-03	0.000000e+00	9.780915e-03	-9.984993e-03	3.885767e-02
9.319193832070879e-03	0.000000e+00	9.069721e-03	-9.186422e-03	3.564637e-02
9.376312894699363e-03	0.000000e+00	7.012498e-03	-7.089373e-03	2.723501e-02
9.437776547417384e-03	0.000000e+00	3.810775e-03	-4.016460e-03	1.492594e-02
9.489677365260301e-03	0.000000e+00	6.481356e-04	-9.670276e-04	2.721706e-03
9.541756067833251e-03	0.000000e+00	-2.593616e-03	2.198147e-03	-9.936972e-03
9.589587675527665e-03	0.000000e+00	-5.336376e-03	4.862484e-03	-2.058498e-02
9.646912184646020e-03	0.000000e+00	-7.974616e-03	7.497216e-03	-3.110507e-02
9.685464173558072e-03	0.000000e+00	-9.189090e-03	8.819987e-03	-3.637985e-02
9.706798951747616e-03	0.000000e+00	-9.633858e-03	9.314577e-03	-3.834818e-02
9.722671757298537e-03	0.000000e+00	-9.852943e-03	9.545112e-03	-3.926246e-02
9.740446915383215e-03	0.000000e+00	-9.981991e-03	9.672679e-03	-3.976373e-02
9.761445691836826e-03	0.000000e+00	-9.974152e-03	9.665090e-03	-3.972269e-02
