Freq.	V(vo2)
1.00000000000000e+00	(1.20400927685987e+01dB,1.79999595399628e+02°)
1.02329299228075e+00	(1.20400927685935e+01dB,1.79999585975275e+02°)
1.04712854805090e+00	(1.20400927685879e+01dB,1.79999576331400e+02°)
1.07151930523761e+00	(1.20400927685822e+01dB,1.79999566462891e+02°)
1.09647819614318e+00	(1.20400927685761e+01dB,1.79999556364514e+02°)
1.12201845430196e+00	(1.20400927685698e+01dB,1.79999546030916e+02°)
1.14815362149688e+00	(1.20400927685631e+01dB,1.79999535456618e+02°)
1.17489755493953e+00	(1.20400927685562e+01dB,1.79999524636013e+02°)
1.20226443461741e+00	(1.20400927685489e+01dB,1.79999513563363e+02°)
1.23026877081238e+00	(1.20400927685413e+01dB,1.79999502232798e+02°)
1.25892541179417e+00	(1.20400927685333e+01dB,1.79999490638311e+02°)
1.28824955169313e+00	(1.20400927685250e+01dB,1.79999478773753e+02°)
1.31825673855641e+00	(1.20400927685162e+01dB,1.79999466632834e+02°)
1.34896288259165e+00	(1.20400927685070e+01dB,1.79999454209116e+02°)
1.38038426460288e+00	(1.20400927684974e+01dB,1.79999441496014e+02°)
1.41253754462275e+00	(1.20400927684874e+01dB,1.79999428486785e+02°)
1.44543977074593e+00	(1.20400927684769e+01dB,1.79999415174532e+02°)
1.47910838816821e+00	(1.20400927684659e+01dB,1.79999401552197e+02°)
1.51356124843621e+00	(1.20400927684543e+01dB,1.79999387612556e+02°)
1.54881661891248e+00	(1.20400927684422e+01dB,1.79999373348221e+02°)
1.58489319246111e+00	(1.20400927684296e+01dB,1.79999358751625e+02°)
1.62181009735893e+00	(1.20400927684164e+01dB,1.79999343815032e+02°)
1.65958690743756e+00	(1.20400927684025e+01dB,1.79999328530521e+02°)
1.69824365246174e+00	(1.20400927683880e+01dB,1.79999312889987e+02°)
1.73780082874937e+00	(1.20400927683728e+01dB,1.79999296885139e+02°)
1.77827941003892e+00	(1.20400927683568e+01dB,1.79999280507490e+02°)
1.81970085860998e+00	(1.20400927683401e+01dB,1.79999263748356e+02°)
1.86208713666287e+00	(1.20400927683227e+01dB,1.79999246598853e+02°)
1.90546071796325e+00	(1.20400927683044e+01dB,1.79999229049886e+02°)
1.94984459975804e+00	(1.20400927682853e+01dB,1.79999211092150e+02°)
1.99526231496888e+00	(1.20400927682653e+01dB,1.79999192716126e+02°)
2.04173794466953e+00	(1.20400927682443e+01dB,1.79999173912069e+02°)
2.08929613085404e+00	(1.20400927682223e+01dB,1.79999154670009e+02°)
2.13796208950223e+00	(1.20400927681993e+01dB,1.79999134979744e+02°)
2.18776162394955e+00	(1.20400927681752e+01dB,1.79999114830834e+02°)
2.23872113856834e+00	(1.20400927681500e+01dB,1.79999094212596e+02°)
2.29086765276777e+00	(1.20400927681235e+01dB,1.79999073114096e+02°)
2.34422881531992e+00	(1.20400927680959e+01dB,1.79999051524150e+02°)
2.39883291901949e+00	(1.20400927680669e+01dB,1.79999029431310e+02°)
2.45470891568503e+00	(1.20400927680366e+01dB,1.79999006823861e+02°)
2.51188643150958e+00	(1.20400927680048e+01dB,1.79998983689816e+02°)
2.57039578276886e+00	(1.20400927679715e+01dB,1.79998960016911e+02°)
2.63026799189538e+00	(1.20400927679367e+01dB,1.79998935792593e+02°)
2.69153480392691e+00	(1.20400927679002e+01dB,1.79998911004018e+02°)
2.75422870333816e+00	(1.20400927678620e+01dB,1.79998885638043e+02°)
2.81838293126445e+00	(1.20400927678220e+01dB,1.79998859681219e+02°)
2.88403150312660e+00	(1.20400927677801e+01dB,1.79998833119782e+02°)
2.95120922666638e+00	(1.20400927677363e+01dB,1.79998805939650e+02°)
3.01995172040201e+00	(1.20400927676904e+01dB,1.79998778126412e+02°)
3.09029543251359e+00	(1.20400927676423e+01dB,1.79998749665320e+02°)
3.16227766016837e+00	(1.20400927675919e+01dB,1.79998720541284e+02°)
3.23593656929628e+00	(1.20400927675392e+01dB,1.79998690738862e+02°)
3.31131121482591e+00	(1.20400927674840e+01dB,1.79998660242252e+02°)
3.38844156139202e+00	(1.20400927674262e+01dB,1.79998629035285e+02°)
3.46736850452531e+00	(1.20400927673657e+01dB,1.79998597101415e+02°)
3.54813389233575e+00	(1.20400927673023e+01dB,1.79998564423709e+02°)
3.63078054770101e+00	(1.20400927672359e+01dB,1.79998530984841e+02°)
3.71535229097172e+00	(1.20400927671664e+01dB,1.79998496767083e+02°)
3.80189396320560e+00	(1.20400927670936e+01dB,1.79998461752290e+02°)
3.89045144994280e+00	(1.20400927670174e+01dB,1.79998425921898e+02°)
3.98107170553496e+00	(1.20400927669376e+01dB,1.79998389256909e+02°)
4.07380277804112e+00	(1.20400927668541e+01dB,1.79998351737882e+02°)
4.16869383470335e+00	(1.20400927667666e+01dB,1.79998313344926e+02°)
4.26579518801592e+00	(1.20400927666749e+01dB,1.79998274057682e+02°)
4.36515832240165e+00	(1.20400927665790e+01dB,1.79998233855321e+02°)
4.46683592150962e+00	(1.20400927664786e+01dB,1.79998192716527e+02°)
4.57088189614874e+00	(1.20400927663734e+01dB,1.79998150619487e+02°)
4.67735141287197e+00	(1.20400927662632e+01dB,1.79998107541881e+02°)
4.78630092322637e+00	(1.20400927661479e+01dB,1.79998063460868e+02°)
4.89778819368445e+00	(1.20400927660271e+01dB,1.79998018353077e+02°)
5.01187233627271e+00	(1.20400927659006e+01dB,1.79997972194591e+02°)
5.12861383991364e+00	(1.20400927657682e+01dB,1.79997924960935e+02°)
5.24807460249771e+00	(1.20400927656295e+01dB,1.79997876627066e+02°)
5.37031796370252e+00	(1.20400927654843e+01dB,1.79997827167357e+02°)
5.49540873857623e+00	(1.20400927653323e+01dB,1.79997776555583e+02°)
5.62341325190348e+00	(1.20400927651730e+01dB,1.79997724764909e+02°)
5.75439937337156e+00	(1.20400927650063e+01dB,1.79997671767876e+02°)
5.88843655355588e+00	(1.20400927648317e+01dB,1.79997617536383e+02°)
6.02559586074356e+00	(1.20400927646489e+01dB,1.79997562041676e+02°)
6.16595001861481e+00	(1.20400927644575e+01dB,1.79997505254332e+02°)
6.30957344480192e+00	(1.20400927642571e+01dB,1.79997447144240e+02°)
6.45654229034654e+00	(1.20400927640472e+01dB,1.79997387680591e+02°)
6.60693448007594e+00	(1.20400927638274e+01dB,1.79997326831855e+02°)
6.76082975391980e+00	(1.20400927635973e+01dB,1.79997264565770e+02°)
6.91830970918935e+00	(1.20400927633563e+01dB,1.79997200849322e+02°)
7.07945784384136e+00	(1.20400927631040e+01dB,1.79997135648727e+02°)
7.24435960074988e+00	(1.20400927628397e+01dB,1.79997068929415e+02°)
7.41310241300916e+00	(1.20400927625630e+01dB,1.79997000656010e+02°)
7.58577575029182e+00	(1.20400927622733e+01dB,1.79996930792314e+02°)
7.76247116628690e+00	(1.20400927619699e+01dB,1.79996859301283e+02°)
7.94328234724279e+00	(1.20400927616522e+01dB,1.79996786145012e+02°)
8.12830516164097e+00	(1.20400927613196e+01dB,1.79996711284713e+02°)
8.31763771102669e+00	(1.20400927609713e+01dB,1.79996634680693e+02°)
8.51138038202374e+00	(1.20400927606065e+01dB,1.79996556292336e+02°)
8.70963589956078e+00	(1.20400927602246e+01dB,1.79996476078080e+02°)
8.91250938133743e+00	(1.20400927598247e+01dB,1.79996393995394e+02°)
9.12010839355907e+00	(1.20400927594059e+01dB,1.79996310000757e+02°)
9.33254300796988e+00	(1.20400927589674e+01dB,1.79996224049633e+02°)
9.54992586021433e+00	(1.20400927585082e+01dB,1.79996136096450e+02°)
9.77237220955808e+00	(1.20400927580274e+01dB,1.79996046094575e+02°)
9.99999999999997e+00	(1.20400927575239e+01dB,1.79995953996287e+02°)
1.02329299228075e+01	(1.20400927569967e+01dB,1.79995859752753e+02°)
1.04712854805090e+01	(1.20400927564446e+01dB,1.79995763314006e+02°)
1.07151930523760e+01	(1.20400927558665e+01dB,1.79995664628912e+02°)
1.09647819614318e+01	(1.20400927552612e+01dB,1.79995563645147e+02°)
1.12201845430196e+01	(1.20400927546274e+01dB,1.79995460309168e+02°)
1.14815362149688e+01	(1.20400927539636e+01dB,1.79995354566185e+02°)
1.17489755493953e+01	(1.20400927532686e+01dB,1.79995246360131e+02°)
1.20226443461741e+01	(1.20400927525409e+01dB,1.79995135633634e+02°)
1.23026877081238e+01	(1.20400927517788e+01dB,1.79995022327986e+02°)
1.25892541179416e+01	(1.20400927509808e+01dB,1.79994906383111e+02°)
1.28824955169313e+01	(1.20400927501452e+01dB,1.79994787737532e+02°)
1.31825673855640e+01	(1.20400927492703e+01dB,1.79994666328343e+02°)
1.34896288259165e+01	(1.20400927483541e+01dB,1.79994542091170e+02°)
1.38038426460288e+01	(1.20400927473947e+01dB,1.79994414960142e+02°)
1.41253754462275e+01	(1.20400927463901e+01dB,1.79994284867852e+02°)
1.44543977074592e+01	(1.20400927453382e+01dB,1.79994151745324e+02°)
1.47910838816820e+01	(1.20400927442367e+01dB,1.79994015521973e+02°)
1.51356124843620e+01	(1.20400927430833e+01dB,1.79993876125573e+02°)
1.54881661891248e+01	(1.20400927418755e+01dB,1.79993733482214e+02°)
1.58489319246111e+01	(1.20400927406108e+01dB,1.79993587516264e+02°)
1.62181009735892e+01	(1.20400927392865e+01dB,1.79993438150330e+02°)
1.65958690743755e+01	(1.20400927378998e+01dB,1.79993285305217e+02°)
1.69824365246174e+01	(1.20400927364477e+01dB,1.79993128899883e+02°)
1.73780082874937e+01	(1.20400927349272e+01dB,1.79992968851402e+02°)
1.77827941003892e+01	(1.20400927333351e+01dB,1.79992805074913e+02°)
1.81970085860998e+01	(1.20400927316679e+01dB,1.79992637483579e+02°)
1.86208713666286e+01	(1.20400927299221e+01dB,1.79992465988541e+02°)
1.90546071796324e+01	(1.20400927280940e+01dB,1.79992290498871e+02°)
1.94984459975804e+01	(1.20400927261798e+01dB,1.79992110921522e+02°)
1.99526231496887e+01	(1.20400927241755e+01dB,1.79991927161278e+02°)
2.04173794466952e+01	(1.20400927220766e+01dB,1.79991739120709e+02°)
2.08929613085403e+01	(1.20400927198788e+01dB,1.79991546700113e+02°)
2.13796208950222e+01	(1.20400927175774e+01dB,1.79991349797465e+02°)
2.18776162394954e+01	(1.20400927151676e+01dB,1.79991148308365e+02°)
2.23872113856833e+01	(1.20400927126441e+01dB,1.79990942125981e+02°)
2.29086765276776e+01	(1.20400927100018e+01dB,1.79990731140993e+02°)
2.34422881531991e+01	(1.20400927072349e+01dB,1.79990515241533e+02°)
2.39883291901948e+01	(1.20400927043377e+01dB,1.79990294313129e+02°)
2.45470891568502e+01	(1.20400927013039e+01dB,1.79990068238641e+02°)
2.51188643150957e+01	(1.20400926981271e+01dB,1.79989836898202e+02°)
2.57039578276885e+01	(1.20400926948006e+01dB,1.79989600169152e+02°)
2.63026799189537e+01	(1.20400926913173e+01dB,1.79989357925974e+02°)
2.69153480392690e+01	(1.20400926876699e+01dB,1.79989110040228e+02°)
2.75422870333815e+01	(1.20400926838506e+01dB,1.79988856380482e+02°)
2.81838293126444e+01	(1.20400926798513e+01dB,1.79988596812241e+02°)
2.88403150312659e+01	(1.20400926756635e+01dB,1.79988331197879e+02°)
2.95120922666637e+01	(1.20400926712783e+01dB,1.79988059396564e+02°)
3.01995172040200e+01	(1.20400926666864e+01dB,1.79987781264183e+02°)
3.09029543251358e+01	(1.20400926618781e+01dB,1.79987496653267e+02°)
3.16227766016837e+01	(1.20400926568433e+01dB,1.79987205412911e+02°)
3.23593656929627e+01	(1.20400926515711e+01dB,1.79986907388697e+02°)
3.31131121482590e+01	(1.20400926460506e+01dB,1.79986602422607e+02°)
3.38844156139201e+01	(1.20400926402698e+01dB,1.79986290352944e+02°)
3.46736850452530e+01	(1.20400926342165e+01dB,1.79985971014245e+02°)
3.54813389233574e+01	(1.20400926278780e+01dB,1.79985644237193e+02°)
3.63078054770100e+01	(1.20400926212408e+01dB,1.79985309848526e+02°)
3.71535229097171e+01	(1.20400926142907e+01dB,1.79984967670947e+02°)
3.80189396320559e+01	(1.20400926070131e+01dB,1.79984617523028e+02°)
3.89045144994279e+01	(1.20400925993926e+01dB,1.79984259219117e+02°)
3.98107170553495e+01	(1.20400925914129e+01dB,1.79983892569236e+02°)
4.07380277804111e+01	(1.20400925830571e+01dB,1.79983517378983e+02°)
4.16869383470333e+01	(1.20400925743075e+01dB,1.79983133449426e+02°)
4.26579518801591e+01	(1.20400925651456e+01dB,1.79982740577002e+02°)
4.36515832240164e+01	(1.20400925555518e+01dB,1.79982338553404e+02°)
4.46683592150961e+01	(1.20400925455060e+01dB,1.79981927165475e+02°)
4.57088189614873e+01	(1.20400925349867e+01dB,1.79981506195090e+02°)
4.67735141287196e+01	(1.20400925239716e+01dB,1.79981075419046e+02°)
4.78630092322636e+01	(1.20400925124374e+01dB,1.79980634608939e+02°)
4.89778819368444e+01	(1.20400925003596e+01dB,1.79980183531047e+02°)
5.01187233627270e+01	(1.20400924877127e+01dB,1.79979721946202e+02°)
5.12861383991362e+01	(1.20400924744696e+01dB,1.79979249609666e+02°)
5.24807460249770e+01	(1.20400924606025e+01dB,1.79978766271000e+02°)
5.37031796370250e+01	(1.20400924460818e+01dB,1.79978271673930e+02°)
5.49540873857622e+01	(1.20400924308768e+01dB,1.79977765556217e+02°)
5.62341325190346e+01	(1.20400924149551e+01dB,1.79977247649508e+02°)
5.75439937337154e+01	(1.20400923982832e+01dB,1.79976717679204e+02°)
5.88843655355586e+01	(1.20400923808254e+01dB,1.79976175364307e+02°)
6.02559586074355e+01	(1.20400923625450e+01dB,1.79975620417275e+02°)
6.16595001861479e+01	(1.20400923434030e+01dB,1.79975052543868e+02°)
6.30957344480190e+01	(1.20400923233589e+01dB,1.79974471442992e+02°)
6.45654229034652e+01	(1.20400923023701e+01dB,1.79973876806539e+02°)
6.60693448007593e+01	(1.20400922803921e+01dB,1.79973268319226e+02°)
6.76082975391978e+01	(1.20400922573784e+01dB,1.79972645658425e+02°)
6.91830970918933e+01	(1.20400922332800e+01dB,1.79972008493993e+02°)
7.07945784384134e+01	(1.20400922080460e+01dB,1.79971356488098e+02°)
7.24435960074986e+01	(1.20400921816226e+01dB,1.79970689295037e+02°)
7.41310241300914e+01	(1.20400921539540e+01dB,1.79970006561056e+02°)
7.58577575029180e+01	(1.20400921249814e+01dB,1.79969307924160e+02°)
7.76247116628688e+01	(1.20400920946435e+01dB,1.79968593013925e+02°)
7.94328234724277e+01	(1.20400920628757e+01dB,1.79967861451294e+02°)
8.12830516164095e+01	(1.20400920296107e+01dB,1.79967112848384e+02°)
8.31763771102667e+01	(1.20400919947780e+01dB,1.79966346808277e+02°)
8.51138038202372e+01	(1.20400919583036e+01dB,1.79965562924807e+02°)
8.70963589956076e+01	(1.20400919201103e+01dB,1.79964760782351e+02°)
8.91250938133741e+01	(1.20400918801170e+01dB,1.79963939955602e+02°)
9.12010839355905e+01	(1.20400918382389e+01dB,1.79963100009347e+02°)
9.33254300796986e+01	(1.20400917943872e+01dB,1.79962240498236e+02°)
9.54992586021431e+01	(1.20400917484687e+01dB,1.79961360966546e+02°)
9.77237220955805e+01	(1.20400917003862e+01dB,1.79960460947937e+02°)
9.99999999999995e+01	(1.20400916500376e+01dB,1.79959539965209e+02°)
1.02329299228075e+02	(1.20400915973162e+01dB,1.79958597530045e+02°)
1.04712854805089e+02	(1.20400915421101e+01dB,1.79957633142755e+02°)
1.07151930523760e+02	(1.20400914843022e+01dB,1.79956646292007e+02°)
1.09647819614318e+02	(1.20400914237699e+01dB,1.79955636454562e+02°)
1.12201845430196e+02	(1.20400913603848e+01dB,1.79954603094991e+02°)
1.14815362149688e+02	(1.20400912940124e+01dB,1.79953545665394e+02°)
1.17489755493952e+02	(1.20400912245121e+01dB,1.79952463605110e+02°)
1.20226443461741e+02	(1.20400911517363e+01dB,1.79951356340415e+02°)
1.23026877081237e+02	(1.20400910755306e+01dB,1.79950223284227e+02°)
1.25892541179416e+02	(1.20400909957335e+01dB,1.79949063835783e+02°)
1.28824955169313e+02	(1.20400909121757e+01dB,1.79947877380331e+02°)
1.31825673855640e+02	(1.20400908246799e+01dB,1.79946663288797e+02°)
1.34896288259165e+02	(1.20400907330606e+01dB,1.79945420917457e+02°)
1.38038426460288e+02	(1.20400906371234e+01dB,1.79944149607588e+02°)
1.41253754462275e+02	(1.20400905366648e+01dB,1.79942848685129e+02°)
1.44543977074592e+02	(1.20400904314718e+01dB,1.79941517460315e+02°)
1.47910838816820e+02	(1.20400903213211e+01dB,1.79940155227314e+02°)
1.51356124843620e+02	(1.20400902059792e+01dB,1.79938761263856e+02°)
1.54881661891247e+02	(1.20400900852014e+01dB,1.79937334830843e+02°)
1.58489319246110e+02	(1.20400899587316e+01dB,1.79935875171966e+02°)
1.62181009735892e+02	(1.20400898263014e+01dB,1.79934381513296e+02°)
1.65958690743755e+02	(1.20400896876300e+01dB,1.79932853062879e+02°)
1.69824365246173e+02	(1.20400895424232e+01dB,1.79931289010313e+02°)
1.73780082874936e+02	(1.20400893903730e+01dB,1.79929688526319e+02°)
1.77827941003891e+02	(1.20400892311569e+01dB,1.79928050762305e+02°)
1.81970085860997e+02	(1.20400890644372e+01dB,1.79926374849909e+02°)
1.86208713666286e+02	(1.20400888898602e+01dB,1.79924659900544e+02°)
1.90546071796323e+02	(1.20400887070557e+01dB,1.79922905004926e+02°)
1.94984459975803e+02	(1.20400885156359e+01dB,1.79921109232591e+02°)
1.99526231496887e+02	(1.20400883151948e+01dB,1.79919271631401e+02°)
2.04173794466952e+02	(1.20400881053071e+01dB,1.79917391227041e+02°)
2.08929613085403e+02	(1.20400878855278e+01dB,1.79915467022502e+02°)
2.13796208950222e+02	(1.20400876553907e+01dB,1.79913497997551e+02°)
2.18776162394954e+02	(1.20400874144075e+01dB,1.79911483108191e+02°)
2.23872113856832e+02	(1.20400871620670e+01dB,1.79909421286109e+02°)
2.29086765276776e+02	(1.20400868978342e+01dB,1.79907311438106e+02°)
2.34422881531991e+02	(1.20400866211486e+01dB,1.79905152445522e+02°)
2.39883291901947e+02	(1.20400863314231e+01dB,1.79902943163639e+02°)
2.45470891568501e+02	(1.20400860280433e+01dB,1.79900682421075e+02°)
2.51188643150956e+02	(1.20400857103657e+01dB,1.79898369019164e+02°)
2.57039578276885e+02	(1.20400853777164e+01dB,1.79896001731321e+02°)
2.63026799189536e+02	(1.20400850293899e+01dB,1.79893579302391e+02°)
2.69153480392690e+02	(1.20400846646472e+01dB,1.79891100447980e+02°)
2.75422870333815e+02	(1.20400842827148e+01dB,1.79888563853782e+02°)
2.81838293126443e+02	(1.20400838827825e+01dB,1.79885968174874e+02°)
2.88403150312659e+02	(1.20400834640021e+01dB,1.79883312035007e+02°)
2.95120922666637e+02	(1.20400830254851e+01dB,1.79880594025878e+02°)
3.01995172040200e+02	(1.20400825663015e+01dB,1.79877812706379e+02°)
3.09029543251357e+02	(1.20400820854774e+01dB,1.79874966601836e+02°)
3.16227766016836e+02	(1.20400815819927e+01dB,1.79872054203227e+02°)
3.23593656929626e+02	(1.20400810547796e+01dB,1.79869073966381e+02°)
3.31131121482589e+02	(1.20400805027197e+01dB,1.79866024311159e+02°)
3.38844156139200e+02	(1.20400799246422e+01dB,1.79862903620618e+02°)
3.46736850452529e+02	(1.20400793193208e+01dB,1.79859710240153e+02°)
3.54813389233573e+02	(1.20400786854715e+01dB,1.79856442476620e+02°)
3.63078054770099e+02	(1.20400780217500e+01dB,1.79853098597435e+02°)
3.71535229097170e+02	(1.20400773267483e+01dB,1.79849676829664e+02°)
3.80189396320558e+02	(1.20400765989923e+01dB,1.79846175359073e+02°)
3.89045144994278e+02	(1.20400758369383e+01dB,1.79842592329173e+02°)
3.98107170553494e+02	(1.20400750389700e+01dB,1.79838925840234e+02°)
4.07380277804110e+02	(1.20400742033947e+01dB,1.79835173948278e+02°)
4.16869383470332e+02	(1.20400733284402e+01dB,1.79831334664046e+02°)
4.26579518801589e+02	(1.20400724122505e+01dB,1.79827405951948e+02°)
4.36515832240163e+02	(1.20400714528823e+01dB,1.79823385728982e+02°)
4.46683592150960e+02	(1.20400704483006e+01dB,1.79819271863626e+02°)
4.57088189614872e+02	(1.20400693963747e+01dB,1.79815062174716e+02°)
4.67735141287195e+02	(1.20400682948734e+01dB,1.79810754430282e+02°)
4.78630092322635e+02	(1.20400671414601e+01dB,1.79806346346370e+02°)
4.89778819368442e+02	(1.20400659336885e+01dB,1.79801835585829e+02°)
5.01187233627268e+02	(1.20400646689967e+01dB,1.79797219757073e+02°)
5.12861383991361e+02	(1.20400633447021e+01dB,1.79792496412813e+02°)
5.24807460249769e+02	(1.20400619579960e+01dB,1.79787663048759e+02°)
5.37031796370249e+02	(1.20400605059368e+01dB,1.79782717102295e+02°)
5.49540873857620e+02	(1.20400589854445e+01dB,1.79777655951119e+02°)
5.62341325190345e+02	(1.20400573932943e+01dB,1.79772476911852e+02°)
5.75439937337152e+02	(1.20400557261090e+01dB,1.79767177238618e+02°)
5.88843655355584e+02	(1.20400539803522e+01dB,1.79761754121589e+02°)
6.02559586074353e+02	(1.20400521523212e+01dB,1.79756204685492e+02°)
6.16595001861477e+02	(1.20400502381385e+01dB,1.79750525988090e+02°)
6.30957344480188e+02	(1.20400482337439e+01dB,1.79744715018620e+02°)
6.45654229034650e+02	(1.20400461348861e+01dB,1.79738768696197e+02°)
6.60693448007591e+02	(1.20400439371132e+01dB,1.79732683868182e+02°)
6.76082975391976e+02	(1.20400416357635e+01dB,1.79726457308513e+02°)
6.91830970918931e+02	(1.20400392259558e+01dB,1.79720085715993e+02°)
7.07945784384132e+02	(1.20400367025787e+01dB,1.79713565712541e+02°)
7.24435960074984e+02	(1.20400340602799e+01dB,1.79706893841402e+02°)
7.41310241300911e+02	(1.20400312934551e+01dB,1.79700066565317e+02°)
7.58577575029177e+02	(1.20400283962356e+01dB,1.79693080264648e+02°)
7.76247116628685e+02	(1.20400253624763e+01dB,1.79685931235457e+02°)
7.94328234724275e+02	(1.20400221857424e+01dB,1.79678615687549e+02°)
8.12830516164092e+02	(1.20400188592960e+01dB,1.79671129742458e+02°)
8.31763771102664e+02	(1.20400153760815e+01dB,1.79663469431399e+02°)
