time	V(v1)	V(v2)	V(vo1)	V(vo2)
0.000000000000000e+00	0.000000e+00	0.000000e+00	-2.666963e-04	-1.092112e-08
2.022996779438075e-07	1.271090e-05	0.000000e+00	-2.576751e-04	-9.721977e-07
4.045993558876149e-07	2.542173e-05	0.000000e+00	-2.441587e-04	-7.768991e-06
6.068990338314224e-07	3.813250e-05	0.000000e+00	-2.261470e-04	-2.040130e-05
8.091987117752299e-07	5.084319e-05	0.000000e+00	-2.036400e-04	-3.886913e-05
1.011498389719037e-06	6.355382e-05	0.000000e+00	-1.766378e-04	-6.317248e-05
1.213798067662845e-06	7.626438e-05	0.000000e+00	-1.451403e-04	-9.331134e-05
1.416097745606652e-06	8.897487e-05	0.000000e+00	-1.091475e-04	-1.292857e-04
2.687993490884427e-06	1.688836e-04	0.000000e+00	1.130393e-04	-4.042572e-04
7.415330329670600e-06	4.661602e-04	0.000000e+00	1.003177e-03	-1.587936e-03
1.214266716845677e-05	7.624547e-04	0.000000e+00	1.888914e-03	-2.766675e-03
1.687000400724295e-05	1.057767e-03	0.000000e+00	2.770248e-03	-3.940475e-03
2.159734084602912e-05	1.352097e-03	0.000000e+00	3.647181e-03	-5.109335e-03
2.632467768481530e-05	1.645445e-03	0.000000e+00	4.519711e-03	-6.273255e-03
3.105201452360146e-05	1.937811e-03	0.000000e+00	5.387841e-03	-7.432235e-03
3.577935136238763e-05	2.229195e-03	0.000000e+00	6.251568e-03	-8.586276e-03
6.869850905425343e-05	4.183659e-03	0.000000e+00	1.189013e-02	-1.611205e-02
1.291752854666968e-04	7.254116e-03	0.000000e+00	2.075255e-02	-2.795198e-02
1.808125895917591e-04	9.069892e-03	0.000000e+00	2.658270e-02	-3.575275e-02
2.033903843580448e-04	9.574231e-03	0.000000e+00	2.830825e-02	-3.806729e-02
2.201123658256834e-04	9.824193e-03	0.000000e+00	2.909411e-02	-3.912598e-02
2.373466871430709e-04	9.968413e-03	0.000000e+00	2.950791e-02	-3.968921e-02
2.602886254186568e-04	9.979112e-03	0.000000e+00	2.953023e-02	-3.973439e-02
2.817486577960626e-04	9.801692e-03	0.000000e+00	2.894577e-02	-3.896941e-02
3.165648893938884e-04	9.138053e-03	0.000000e+00	2.668700e-02	-3.597970e-02
3.721801254847014e-04	7.195235e-03	0.000000e+00	2.067426e-02	-2.799291e-02
4.356326874256522e-04	3.934964e-03	0.000000e+00	1.125281e-02	-1.545533e-02
4.877545038259813e-04	7.686483e-04	0.000000e+00	2.106530e-03	-3.269373e-03
5.405311868979835e-04	-2.519212e-03	0.000000e+00	-7.519318e-03	9.567450e-03
5.883457461093506e-04	-5.270221e-03	0.000000e+00	-1.553184e-02	2.026290e-02
6.453091815951329e-04	-7.913441e-03	0.000000e+00	-2.342370e-02	3.080988e-02
6.843286233081794e-04	-9.160711e-03	0.000000e+00	-2.746876e-02	3.622499e-02
7.059649424238887e-04	-9.619676e-03	0.000000e+00	-2.898782e-02	3.826381e-02
7.220447960271625e-04	-9.846136e-03	0.000000e+00	-2.969597e-02	3.921851e-02
7.396862560534092e-04	-9.979011e-03	0.000000e+00	-3.007981e-02	3.974211e-02
7.611620378207840e-04	-9.975417e-03	0.000000e+00	-3.005915e-02	3.972898e-02
7.831696050869391e-04	-9.783610e-03	0.000000e+00	-2.941559e-02	3.888557e-02
8.188601377262564e-04	-9.078532e-03	0.000000e+00	-2.702269e-02	3.571745e-02
8.757889463878268e-04	-7.035929e-03	0.000000e+00	-2.074550e-02	2.737841e-02
9.376521463219010e-04	-3.818001e-03	0.000000e+00	-1.146098e-02	1.502227e-02
9.895572224193530e-04	-6.556684e-04	0.000000e+00	-2.310397e-03	2.830122e-03
1.041662789745086e-03	2.587955e-03	0.000000e+00	7.188812e-03	-9.838145e-03
1.089429029531410e-03	5.327943e-03	0.000000e+00	1.516833e-02	-2.048980e-02
1.146340887498205e-03	7.952907e-03	0.000000e+00	2.301682e-02	-3.097911e-02
1.184645145526042e-03	9.168669e-03	0.000000e+00	2.696407e-02	-3.626347e-02
1.206197291614173e-03	9.623653e-03	0.000000e+00	2.846723e-02	-3.828106e-02
1.222219416512600e-03	9.848047e-03	0.000000e+00	2.916856e-02	-3.922662e-02
1.239898036641579e-03	9.979863e-03	0.000000e+00	2.954960e-02	-3.974652e-02
1.261241026350539e-03	9.975067e-03	0.000000e+00	2.952533e-02	-3.972849e-02
1.283298100702196e-03	9.781936e-03	0.000000e+00	2.887633e-02	-3.887784e-02
1.319067615713119e-03	9.073059e-03	0.000000e+00	2.647115e-02	-3.569340e-02
1.376114738516859e-03	7.021368e-03	0.000000e+00	2.017589e-02	-2.733031e-02
1.437233701820706e-03	3.842287e-03	0.000000e+00	1.100367e-02	-1.512365e-02
1.489183056516879e-03	6.791255e-04	0.000000e+00	1.845381e-03	-2.921289e-03
1.541315239879717e-03	-2.566856e-03	0.000000e+00	-7.659952e-03	9.755067e-03
1.589155536603186e-03	-5.313393e-03	0.000000e+00	-1.565638e-02	2.042923e-02
1.646309137983034e-03	-7.951697e-03	0.000000e+00	-2.354503e-02	3.097217e-02
1.684595184612721e-03	-9.167415e-03	0.000000e+00	-2.749366e-02	3.625835e-02
1.706160610570305e-03	-9.623026e-03	0.000000e+00	-2.899861e-02	3.827832e-02
1.722191846717878e-03	-9.847746e-03	0.000000e+00	-2.970101e-02	3.922532e-02
1.739864595870029e-03	-9.979730e-03	0.000000e+00	-3.008249e-02	3.974581e-02
1.761228554584424e-03	-9.975123e-03	0.000000e+00	-3.005879e-02	3.972855e-02
1.783277812210159e-03	-9.782201e-03	0.000000e+00	-2.941065e-02	3.887904e-02
1.819034857396856e-03	-9.073924e-03	0.000000e+00	-2.700741e-02	3.569718e-02
1.876063304544375e-03	-7.023669e-03	0.000000e+00	-2.070977e-02	2.733091e-02
1.937823960911100e-03	-3.808021e-03	0.000000e+00	-1.143272e-02	1.498464e-02
1.989749515804074e-03	-6.436118e-04	0.000000e+00	-2.275154e-03	2.783139e-03
2.041869735052085e-03	2.600513e-03	0.000000e+00	7.225149e-03	-9.886631e-03
2.089717072531222e-03	5.343250e-03	0.000000e+00	1.521206e-02	-2.054821e-02
2.146682517811008e-03	7.965901e-03	0.000000e+00	2.305786e-02	-3.103400e-02
2.184758143833571e-03	9.171501e-03	0.000000e+00	2.697414e-02	-3.627696e-02
2.206280263053427e-03	9.625068e-03	0.000000e+00	2.847179e-02	-3.828719e-02
2.222281781888673e-03	9.848727e-03	0.000000e+00	2.917068e-02	-3.922950e-02
2.239973688203734e-03	9.980164e-03	0.000000e+00	2.955073e-02	-3.974807e-02
2.261269239637454e-03	9.974943e-03	0.000000e+00	2.952518e-02	-3.972831e-02
2.283343996611926e-03	9.781336e-03	0.000000e+00	2.887422e-02	-3.887507e-02
2.319141719172904e-03	9.071100e-03	0.000000e+00	2.646466e-02	-3.568478e-02
2.376231082102364e-03	7.016161e-03	0.000000e+00	2.016106e-02	-2.731060e-02
2.437272137757029e-03	3.840058e-03	0.000000e+00	1.099772e-02	-1.511574e-02
2.489236979042454e-03	6.757452e-04	0.000000e+00	1.835477e-03	-2.908085e-03
2.541378675277935e-03	-2.570708e-03	0.000000e+00	-7.670931e-03	9.769718e-03
2.589274123066084e-03	-5.319704e-03	0.000000e+00	-1.567469e-02	2.045368e-02
2.646400023348121e-03	-7.955159e-03	0.000000e+00	-2.355684e-02	3.098796e-02
2.684584850620712e-03	-9.167155e-03	0.000000e+00	-2.749341e-02	3.625800e-02
2.706153023700362e-03	-9.622897e-03	0.000000e+00	-2.899819e-02	3.827776e-02
2.722186144471993e-03	-9.847684e-03	0.000000e+00	-2.970081e-02	3.922506e-02
2.739857679519512e-03	-9.979702e-03	0.000000e+00	-3.008239e-02	3.974566e-02
2.761225975090185e-03	-9.975134e-03	0.000000e+00	-3.005880e-02	3.972857e-02
2.783273616002883e-03	-9.782256e-03	0.000000e+00	-2.941084e-02	3.887930e-02
2.819028082051552e-03	-9.074103e-03	0.000000e+00	-2.700800e-02	3.569796e-02
2.876052666323491e-03	-7.024145e-03	0.000000e+00	-2.071087e-02	2.733237e-02
2.937846220194292e-03	-3.806727e-03	0.000000e+00	-1.142867e-02	1.497924e-02
2.989779247715637e-03	-6.417475e-04	0.000000e+00	-2.269694e-03	2.775861e-03
3.041903622323929e-03	2.602569e-03	0.000000e+00	7.231001e-03	-9.894440e-03
3.089781878937338e-03	5.346691e-03	0.000000e+00	1.522184e-02	-2.056126e-02
3.146754662962205e-03	7.968641e-03	0.000000e+00	2.306653e-02	-3.104560e-02
3.184782898200950e-03	9.172120e-03	0.000000e+00	2.697633e-02	-3.627989e-02
3.206298441084146e-03	9.625378e-03	0.000000e+00	2.847279e-02	-3.828853e-02
3.222295445995332e-03	9.848875e-03	0.000000e+00	2.917115e-02	-3.923013e-02
3.239990264300763e-03	9.980229e-03	0.000000e+00	2.955097e-02	-3.974840e-02
3.261275421291443e-03	9.974915e-03	0.000000e+00	2.952514e-02	-3.972827e-02
3.283354052575882e-03	9.781205e-03	0.000000e+00	2.887376e-02	-3.887446e-02
3.319157955284737e-03	9.070670e-03	0.000000e+00	2.646323e-02	-3.568289e-02
3.376256571832421e-03	7.015020e-03	0.000000e+00	2.015782e-02	-2.730630e-02
3.437279498898398e-03	3.839631e-03	0.000000e+00	1.099664e-02	-1.511429e-02
3.489242557110957e-03	6.753955e-04	0.000000e+00	1.834458e-03	-2.906727e-03
3.541379601477740e-03	-2.570764e-03	0.000000e+00	-7.671024e-03	9.769842e-03
3.589290612199736e-03	-5.320581e-03	0.000000e+00	-1.567730e-02	2.045717e-02
3.646398734104170e-03	-7.955110e-03	0.000000e+00	-2.355705e-02	3.098823e-02
3.684568089633069e-03	-9.166735e-03	0.000000e+00	-2.749219e-02	3.625636e-02
3.706140718560001e-03	-9.622687e-03	0.000000e+00	-2.899752e-02	3.827685e-02
3.722176896084198e-03	-9.847582e-03	0.000000e+00	-2.970050e-02	3.922464e-02
3.739846462129356e-03	-9.979657e-03	0.000000e+00	-3.008222e-02	3.974543e-02
3.761221791471948e-03	-9.975153e-03	0.000000e+00	-3.005883e-02	3.972859e-02
3.783266810273614e-03	-9.782344e-03	0.000000e+00	-2.941115e-02	3.887971e-02
3.819017093248681e-03	-9.074393e-03	0.000000e+00	-2.700897e-02	3.569924e-02
3.876035412234727e-03	-7.024916e-03	0.000000e+00	-2.071297e-02	2.733516e-02
3.937850211052280e-03	-3.806496e-03	0.000000e+00	-1.142786e-02	1.497817e-02
3.989777538975410e-03	-6.418547e-04	0.000000e+00	-2.270017e-03	2.776292e-03
4.041894669376198e-03	2.602025e-03	0.000000e+00	7.229404e-03	-9.892308e-03
4.089776931485008e-03	5.346429e-03	0.000000e+00	1.522107e-02	-2.056024e-02
4.146746507623416e-03	7.968331e-03	0.000000e+00	2.306557e-02	-3.104432e-02
4.184780105803529e-03	9.172050e-03	0.000000e+00	2.697609e-02	-3.627957e-02
4.206296390496512e-03	9.625344e-03	0.000000e+00	2.847268e-02	-3.828838e-02
4.222293904593576e-03	9.848858e-03	0.000000e+00	2.917110e-02	-3.923006e-02
4.239988394388897e-03	9.980221e-03	0.000000e+00	2.955094e-02	-3.974837e-02
4.261274723956507e-03	9.974918e-03	0.000000e+00	2.952515e-02	-3.972827e-02
4.283352918191510e-03	9.781220e-03	0.000000e+00	2.887381e-02	-3.887453e-02
4.319156123739813e-03	9.070719e-03	0.000000e+00	2.646339e-02	-3.568311e-02
4.376253696437730e-03	7.015149e-03	0.000000e+00	2.015818e-02	-2.730677e-02
4.437279601265281e-03	3.839625e-03	0.000000e+00	1.099665e-02	-1.511430e-02
4.489233533711758e-03	6.759612e-04	0.000000e+00	1.836128e-03	-2.908954e-03
4.541360345968556e-03	-2.569595e-03	0.000000e+00	-7.667633e-03	9.765319e-03
4.589268407376688e-03	-5.319400e-03	0.000000e+00	-1.567394e-02	2.045269e-02
4.646367124463362e-03	-7.953906e-03	0.000000e+00	-2.355333e-02	3.098326e-02
4.684553567015198e-03	-9.166370e-03	0.000000e+00	-2.749096e-02	3.625471e-02
4.706130056941087e-03	-9.622504e-03	0.000000e+00	-2.899693e-02	3.827607e-02
4.722168883028174e-03	-9.847495e-03	0.000000e+00	-2.970023e-02	3.922427e-02
4.739836743211815e-03	-9.979618e-03	0.000000e+00	-3.008208e-02	3.974523e-02
4.761218166695834e-03	-9.975169e-03	0.000000e+00	-3.005884e-02	3.972862e-02
4.783260913640613e-03	-9.782421e-03	0.000000e+00	-2.941142e-02	3.888006e-02
4.819007572278351e-03	-9.074644e-03	0.000000e+00	-2.700980e-02	3.570034e-02
4.876020462703926e-03	-7.025585e-03	0.000000e+00	-2.071486e-02	2.733766e-02
4.937846975808920e-03	-3.806684e-03	0.000000e+00	-1.142837e-02	1.497884e-02
4.989764431114273e-03	-6.426765e-04	0.000000e+00	-2.272436e-03	2.779517e-03
5.041871134620020e-03	2.600598e-03	0.000000e+00	7.225280e-03	-9.886806e-03
5.089746075354411e-03	5.344790e-03	0.000000e+00	1.521639e-02	-2.055399e-02
5.146708513682815e-03	7.966888e-03	0.000000e+00	2.306104e-02	-3.103825e-02
5.184766497460099e-03	9.171709e-03	0.000000e+00	2.697489e-02	-3.627796e-02
5.206286397360280e-03	9.625173e-03	0.000000e+00	2.847213e-02	-3.828764e-02
5.222286392914853e-03	9.848777e-03	0.000000e+00	2.917084e-02	-3.922971e-02
5.239979281855813e-03	9.980186e-03	0.000000e+00	2.955081e-02	-3.974818e-02
5.261271325662172e-03	9.974933e-03	0.000000e+00	2.952516e-02	-3.972829e-02
5.283347390039768e-03	9.781293e-03	0.000000e+00	2.887407e-02	-3.887486e-02
5.319147198127236e-03	9.070955e-03	0.000000e+00	2.646418e-02	-3.568414e-02
5.376239683783817e-03	7.015776e-03	0.000000e+00	2.015994e-02	-2.730912e-02
5.437277165598609e-03	3.839766e-03	0.000000e+00	1.099702e-02	-1.511480e-02
5.489220925394932e-03	6.767516e-04	0.000000e+00	1.838457e-03	-2.912059e-03
5.541337393652889e-03	-2.568201e-03	0.000000e+00	-7.663621e-03	9.759964e-03
5.589235778398849e-03	-5.317664e-03	0.000000e+00	-1.566897e-02	2.044605e-02
5.646330439492329e-03	-7.952509e-03	0.000000e+00	-2.354889e-02	3.097731e-02
5.684543062611053e-03	-9.166107e-03	0.000000e+00	-2.748999e-02	3.625342e-02
5.706122345373144e-03	-9.622372e-03	0.000000e+00	-2.899650e-02	3.827549e-02
5.722163087217852e-03	-9.847431e-03	0.000000e+00	-2.970003e-02	3.922400e-02
5.739829713637592e-03	-9.979590e-03	0.000000e+00	-3.008197e-02	3.974508e-02
5.761215544924764e-03	-9.975181e-03	0.000000e+00	-3.005886e-02	3.972863e-02
5.783256648651664e-03	-9.782476e-03	0.000000e+00	-2.941162e-02	3.888032e-02
5.819000685816552e-03	-9.074826e-03	0.000000e+00	-2.701040e-02	3.570114e-02
5.876009649702588e-03	-7.026068e-03	0.000000e+00	-2.071625e-02	2.733952e-02
5.937841567790307e-03	-3.806998e-03	0.000000e+00	-1.142929e-02	1.498007e-02
5.989749545897317e-03	-6.436098e-04	0.000000e+00	-2.275180e-03	2.783176e-03
6.041846729389779e-03	2.599117e-03	0.000000e+00	7.221015e-03	-9.881115e-03
6.089711358690312e-03	5.342946e-03	0.000000e+00	1.521114e-02	-2.054697e-02
6.146666195323731e-03	7.965282e-03	0.000000e+00	2.305599e-02	-3.103150e-02
6.184750893039609e-03	9.171319e-03	0.000000e+00	2.697353e-02	-3.627614e-02
6.206274938641257e-03	9.624978e-03	0.000000e+00	2.847150e-02	-3.828680e-02
6.222277779663197e-03	9.848683e-03	0.000000e+00	2.917055e-02	-3.922931e-02
6.239968833123703e-03	9.980144e-03	0.000000e+00	2.955065e-02	-3.974796e-02
6.261267429040000e-03	9.974951e-03	0.000000e+00	2.952519e-02	-3.972832e-02
6.283341051232702e-03	9.781376e-03	0.000000e+00	2.887436e-02	-3.887524e-02
6.319136963620399e-03	9.071225e-03	0.000000e+00	2.646507e-02	-3.568533e-02
6.376223616084791e-03	7.016495e-03	0.000000e+00	2.016197e-02	-2.731181e-02
6.437274439123274e-03	3.839924e-03	0.000000e+00	1.099742e-02	-1.511533e-02
6.489209771493581e-03	6.774508e-04	0.000000e+00	1.840516e-03	-2.914805e-03
6.541318069662509e-03	-2.567028e-03	0.000000e+00	-7.660253e-03	9.755470e-03
6.589206091889781e-03	-5.316084e-03	0.000000e+00	-1.566443e-02	2.043999e-02
6.646299833922746e-03	-7.951343e-03	0.000000e+00	-2.354513e-02	3.097229e-02
6.684536560296075e-03	-9.165943e-03	0.000000e+00	-2.748935e-02	3.625256e-02
6.706117571899517e-03	-9.622291e-03	0.000000e+00	-2.899624e-02	3.827514e-02
6.722159499621369e-03	-9.847392e-03	0.000000e+00	-2.969990e-02	3.922383e-02
6.739825362376510e-03	-9.979572e-03	0.000000e+00	-3.008191e-02	3.974500e-02
6.761213922059147e-03	-9.975187e-03	0.000000e+00	-3.005887e-02	3.972865e-02
6.783254008639915e-03	-9.782511e-03	0.000000e+00	-2.941174e-02	3.888048e-02
6.818996423115732e-03	-9.074938e-03	0.000000e+00	-2.701078e-02	3.570164e-02
6.876002956445236e-03	-7.026367e-03	0.000000e+00	-2.071714e-02	2.734069e-02
6.937836452536528e-03	-3.807295e-03	0.000000e+00	-1.143018e-02	1.498125e-02
6.989737154130675e-03	-6.443869e-04	0.000000e+00	-2.277463e-03	2.786220e-03
7.041827240474525e-03	2.597935e-03	0.000000e+00	7.217614e-03	-9.876576e-03
7.089682535261856e-03	5.341416e-03	0.000000e+00	1.520678e-02	-2.054116e-02
7.146630907811614e-03	7.963941e-03	0.000000e+00	2.305179e-02	-3.102588e-02
7.184737403260050e-03	9.170981e-03	0.000000e+00	2.697236e-02	-3.627457e-02
7.206265032940862e-03	9.624809e-03	0.000000e+00	2.847096e-02	-3.828606e-02
7.222270333849947e-03	9.848602e-03	0.000000e+00	2.917029e-02	-3.922897e-02
7.239959800727822e-03	9.980109e-03	0.000000e+00	2.955052e-02	-3.974778e-02
7.261264060587035e-03	9.974966e-03	0.000000e+00	2.952520e-02	-3.972834e-02
7.283335571618353e-03	9.781446e-03	0.000000e+00	2.887461e-02	-3.887558e-02
7.319128116321775e-03	9.071460e-03	0.000000e+00	2.646585e-02	-3.568636e-02
7.376209726097792e-03	7.017117e-03	0.000000e+00	2.016371e-02	-2.731412e-02
7.437272352225630e-03	3.840045e-03	0.000000e+00	1.099771e-02	-1.511572e-02
7.489201820001292e-03	6.779493e-04	0.000000e+00	1.841984e-03	-2.916762e-03
7.541304648811661e-03	-2.566213e-03	0.000000e+00	-7.657920e-03	9.752356e-03
7.589184234513003e-03	-5.314921e-03	0.000000e+00	-1.566108e-02	2.043551e-02
7.646278677514694e-03	-7.950537e-03	0.000000e+00	-2.354250e-02	3.096877e-02
7.684533274847574e-03	-9.165861e-03	0.000000e+00	-2.748900e-02	3.625208e-02
7.706115160004176e-03	-9.622249e-03	0.000000e+00	-2.899611e-02	3.827496e-02
7.722157686920543e-03	-9.847373e-03	0.000000e+00	-2.969984e-02	3.922375e-02
7.739823163829361e-03	-9.979564e-03	0.000000e+00	-3.008187e-02	3.974495e-02
7.761213102077443e-03	-9.975191e-03	0.000000e+00	-3.005887e-02	3.972865e-02
7.783252674726766e-03	-9.782529e-03	0.000000e+00	-2.941180e-02	3.888056e-02
7.818994269307739e-03	-9.074995e-03	0.000000e+00	-2.701096e-02	3.570189e-02
7.875999574542391e-03	-7.026519e-03	0.000000e+00	-2.071759e-02	2.734130e-02
7.937832584155053e-03	-3.807520e-03	0.000000e+00	-1.143086e-02	1.498216e-02
7.989728532956611e-03	-6.449274e-04	0.000000e+00	-2.279051e-03	2.788337e-03
8.041814106426941e-03	2.597138e-03	0.000000e+00	7.215324e-03	-9.873521e-03
8.089662489599816e-03	5.340351e-03	0.000000e+00	1.520376e-02	-2.053712e-02
8.146606044605315e-03	7.962996e-03	0.000000e+00	2.304883e-02	-3.102193e-02
8.184727406548751e-03	9.170731e-03	0.000000e+00	2.697150e-02	-3.627341e-02
8.206257692351103e-03	9.624683e-03	0.000000e+00	2.847055e-02	-3.828552e-02
8.222264816194437e-03	9.848542e-03	0.000000e+00	2.917011e-02	-3.922872e-02
8.239953107419080e-03	9.980082e-03	0.000000e+00	2.955042e-02	-3.974764e-02
8.261261564437147e-03	9.974977e-03	0.000000e+00	2.952522e-02	-3.972836e-02
8.283331511016713e-03	9.781499e-03	0.000000e+00	2.887480e-02	-3.887582e-02
8.319121560122718e-03	9.071633e-03	0.000000e+00	2.646642e-02	-3.568713e-02
8.376199432982831e-03	7.017578e-03	0.000000e+00	2.016500e-02	-2.731584e-02
8.437271128416201e-03	3.840116e-03	0.000000e+00	1.099786e-02	-1.511592e-02
8.489197135662463e-03	6.782429e-04	0.000000e+00	1.842849e-03	-2.917916e-03
8.541296887694658e-03	-2.565741e-03	0.000000e+00	-7.656575e-03	9.750562e-03
8.589170673547914e-03	-5.314199e-03	0.000000e+00	-1.565900e-02	2.043273e-02
8.646266477391020e-03	-7.950071e-03	0.000000e+00	-2.354096e-02	3.096672e-02
8.684532234328730e-03	-9.165835e-03	0.000000e+00	-2.748886e-02	3.625189e-02
8.706114396146341e-03	-9.622236e-03	0.000000e+00	-2.899607e-02	3.827490e-02
8.722157112831051e-03	-9.847366e-03	0.000000e+00	-2.969982e-02	3.922372e-02
8.739822467542168e-03	-9.979561e-03	0.000000e+00	-3.008186e-02	3.974494e-02
8.761212842386257e-03	-9.975192e-03	0.000000e+00	-3.005887e-02	3.972865e-02
8.783252252271584e-03	-9.782534e-03	0.000000e+00	-2.941182e-02	3.888058e-02
8.818993587188552e-03	-9.075014e-03	0.000000e+00	-2.701102e-02	3.570197e-02
8.875998503479289e-03	-7.026567e-03	0.000000e+00	-2.071775e-02	2.734151e-02
8.937830111914079e-03	-3.807663e-03	0.000000e+00	-1.143130e-02	1.498275e-02
8.989723472331748e-03	-6.452447e-04	0.000000e+00	-2.279983e-03	2.789580e-03
9.041806678258504e-03	2.596687e-03	0.000000e+00	7.214031e-03	-9.871795e-03
9.089650702436966e-03	5.339724e-03	0.000000e+00	1.520199e-02	-2.053475e-02
9.146591027432644e-03	7.962425e-03	0.000000e+00	2.304706e-02	-3.101955e-02
9.184720863649033e-03	9.170567e-03	0.000000e+00	2.697094e-02	-3.627267e-02
9.206252887947687e-03	9.624601e-03	0.000000e+00	2.847029e-02	-3.828517e-02
9.222261204917820e-03	9.848502e-03	0.000000e+00	2.916998e-02	-3.922855e-02
9.239948726715897e-03	9.980065e-03	0.000000e+00	2.955035e-02	-3.974755e-02
9.261259930726138e-03	9.974984e-03	0.000000e+00	2.952523e-02	-3.972837e-02
9.283328853383057e-03	9.781535e-03	0.000000e+00	2.887492e-02	-3.887598e-02
9.319117269131736e-03	9.071747e-03	0.000000e+00	2.646680e-02	-3.568763e-02
9.376192696165270e-03	7.017880e-03	0.000000e+00	2.016584e-02	-2.731696e-02
9.437270662685191e-03	3.840143e-03	0.000000e+00	1.099790e-02	-1.511597e-02
9.489195071599798e-03	6.783723e-04	0.000000e+00	1.843230e-03	-2.918424e-03
9.541293534759281e-03	-2.565538e-03	0.000000e+00	-7.655999e-03	9.749793e-03
9.589163940630632e-03	-5.313841e-03	0.000000e+00	-1.565797e-02	2.043135e-02
