time	V(vin)	V(vo)	I(Rl)
0.000000000000000e+00	0.000000e+00	-1.308061e-02	-2.335467e-06
3.453643381974223e-07	1.085002e-03	-1.294433e-02	-2.291757e-06
6.907286763948447e-07	2.169987e-03	-1.260827e-02	-2.212372e-06
1.036093014592267e-06	3.254956e-03	-1.207242e-02	-2.097311e-06
1.381457352789689e-06	4.339908e-03	-1.133679e-02	-1.946575e-06
1.726821690987112e-06	5.424844e-03	-1.040137e-02	-1.760162e-06
2.072186029184534e-06	6.509764e-03	-9.266161e-03	-1.538075e-06
2.417550367381956e-06	7.594666e-03	-7.931169e-03	-1.280311e-06
4.223645441508258e-06	1.326742e-02	8.208452e-04	3.838417e-07
5.989303527419007e-06	1.881151e-02	1.269332e-02	2.602921e-06
8.240449480742281e-06	2.587657e-02	3.230862e-02	6.231794e-06
1.128206912852523e-05	3.541399e-02	6.473513e-02	1.219250e-05
1.553389287636061e-05	4.872372e-02	1.181121e-01	2.196165e-05
2.115248987857816e-05	6.625704e-02	1.978818e-01	3.651909e-05
2.807666987844889e-05	8.774867e-02	3.046574e-01	5.596951e-05
3.620380466632412e-05	1.127592e-01	4.359739e-01	7.986477e-05
5.573505466632413e-05	1.715399e-01	7.574095e-01	1.383124e-04
7.526630466632412e-05	2.277404e-01	1.071585e+00	1.954178e-04
9.479755466632411e-05	2.805154e-01	1.370051e+00	2.496569e-04
1.143288046663241e-04	3.290713e-01	1.647812e+00	3.001232e-04
1.338600546663241e-04	3.726776e-01	1.900629e+00	3.460470e-04
1.533913046663241e-04	4.106785e-01	2.124692e+00	3.867364e-04
1.729225546663242e-04	4.425024e-01	2.316633e+00	4.215792e-04
1.924538046663242e-04	4.676707e-01	2.473561e+00	4.500510e-04
2.119850546663242e-04	4.858048e-01	2.593113e+00	4.717232e-04
2.315163046663242e-04	4.966319e-01	2.673487e+00	4.862689e-04
2.510475546663242e-04	4.999892e-01	2.713468e+00	4.934681e-04
2.705788046663242e-04	4.958262e-01	2.712447e+00	4.932116e-04
2.901100546663243e-04	4.842055e-01	2.670432e+00	4.855016e-04
3.096413046663243e-04	4.653019e-01	2.588049e+00	4.704531e-04
3.291725546663243e-04	4.393997e-01	2.466528e+00	4.482909e-04
3.487038046663243e-04	4.068886e-01	2.307693e+00	4.193474e-04
3.682350546663243e-04	3.682575e-01	2.113925e+00	3.840569e-04
3.877663046663243e-04	3.240874e-01	1.888137e+00	3.429495e-04
4.072975546663244e-04	2.750428e-01	1.633721e+00	2.966432e-04
4.268288046663244e-04	2.218612e-01	1.354505e+00	2.458343e-04
4.463600546663244e-04	1.653427e-01	1.054688e+00	1.912873e-04
4.658913046663244e-04	1.063372e-01	7.387838e-01	1.338231e-04
4.854225546663244e-04	4.573239e-02	4.115485e-01	7.430705e-05
5.049538046663244e-04	-1.556032e-02	7.790977e-02	1.363523e-05
5.244850546663244e-04	-7.661899e-02	-2.571070e-01	-4.727850e-05
5.440163046663244e-04	-1.365252e-01	-5.884551e-01	-1.075166e-04
5.635475546663244e-04	-1.943780e-01	-9.111433e-01	-1.661716e-04
5.830788046663245e-04	-2.493072e-01	-1.220310e+00	-2.223599e-04
6.026100546663245e-04	-3.004865e-01	-1.511300e+00	-2.752354e-04
6.221413046663245e-04	-3.471463e-01	-1.779729e+00	-3.240016e-04
6.416725546663245e-04	-3.885846e-01	-2.021557e+00	-3.679244e-04
6.612038046663245e-04	-4.241783e-01	-2.233144e+00	-4.063428e-04
6.807350546663245e-04	-4.533919e-01	-2.411308e+00	-4.386790e-04
7.002663046663246e-04	-4.757861e-01	-2.553370e+00	-4.644468e-04
7.197975546663246e-04	-4.910240e-01	-2.657199e+00	-4.832595e-04
7.393288046663246e-04	-4.988765e-01	-2.721237e+00	-4.948349e-04
7.588600546663246e-04	-4.992254e-01	-2.744528e+00	-4.990003e-04
7.783913046663246e-04	-4.920655e-01	-2.726729e+00	-4.956942e-04
7.979225546663247e-04	-4.775045e-01	-2.668117e+00	-4.849680e-04
8.174538046663247e-04	-4.557613e-01	-2.569580e+00	-4.669842e-04
8.369850546663247e-04	-4.271631e-01	-2.432609e+00	-4.420148e-04
8.565163046663247e-04	-3.921400e-01	-2.259269e+00	-4.104364e-04
8.760475546663247e-04	-3.512187e-01	-2.052173e+00	-3.727250e-04
8.955788046663247e-04	-3.050147e-01	-1.814439e+00	-3.294482e-04
9.151100546663248e-04	-2.542230e-01	-1.549644e+00	-2.812572e-04
9.346413046663248e-04	-1.996076e-01	-1.261770e+00	-2.288768e-04
9.541725546663248e-04	-1.419899e-01	-9.551441e-01	-1.730942e-04
9.737038046663248e-04	-8.223658e-02	-6.343740e-01	-1.147479e-04
9.932350546663247e-04	-2.124630e-02	-3.042784e-01	-5.471412e-05
1.012766304666325e-03	4.006353e-02	3.018478e-02	6.105229e-06
1.032297554666325e-03	1.007708e-01	3.639925e-01	6.679678e-05
1.051828804666325e-03	1.599623e-01	6.921318e-01	1.264491e-04
1.071360054666325e-03	2.167479e-01	1.009675e+00	1.841662e-04
1.090891304666325e-03	2.702734e-01	1.311852e+00	2.390814e-04
1.110422554666325e-03	3.197337e-01	1.594124e+00	2.903695e-04
1.129953804666325e-03	3.643849e-01	1.852249e+00	3.372599e-04
1.149485054666325e-03	4.035555e-01	2.082348e+00	3.790478e-04
1.169016304666325e-03	4.366562e-01	2.280961e+00	4.151048e-04
1.188547554666325e-03	4.631892e-01	2.445097e+00	4.448884e-04
1.208078804666325e-03	4.827553e-01	2.572288e+00	4.679500e-04
1.227610054666325e-03	4.950604e-01	2.660614e+00	4.839420e-04
1.247141304666325e-03	4.999194e-01	2.708741e+00	4.926228e-04
1.266672554666325e-03	4.972590e-01	2.715940e+00	4.938608e-04
1.286203804666325e-03	4.871194e-01	2.682093e+00	4.876360e-04
1.305735054666325e-03	4.696531e-01	2.607704e+00	4.740406e-04
1.325266304666325e-03	4.451228e-01	2.493884e+00	4.532780e-04
1.344797554666325e-03	4.138974e-01	2.342339e+00	4.256592e-04
1.364328804666325e-03	3.764467e-01	2.155341e+00	3.915986e-04
1.383860054666325e-03	3.333338e-01	1.935700e+00	3.516079e-04
1.403391304666325e-03	2.852072e-01	1.686717e+00	3.062880e-04
1.422922554666325e-03	2.327909e-01	1.412135e+00	2.563205e-04
1.442453804666325e-03	1.768732e-01	1.116087e+00	2.024570e-04
1.461985054666325e-03	1.182951e-01	8.030263e-01	1.455083e-04
1.481516304666325e-03	5.793779e-02	4.776674e-01	8.633174e-05
1.501047554666325e-03	-3.290966e-03	1.449094e-01	2.581833e-05
1.510813179666325e-03	-3.394448e-02	-2.268044e-02	-4.655291e-06
1.530344429666325e-03	-9.475332e-02	-3.571255e-01	-6.546247e-05
1.549875679666325e-03	-1.541370e-01	-6.863953e-01	-1.253201e-04
1.569406929666325e-03	-2.112023e-01	-1.005530e+00	-1.833264e-04
1.588938179666325e-03	-2.650909e-01	-1.309721e+00	-2.386077e-04
1.608469429666325e-03	-3.149924e-01	-1.594388e+00	-2.903314e-04
1.628000679666325e-03	-3.601560e-01	-1.855244e+00	-3.377185e-04
1.647531929666325e-03	-3.999026e-01	-2.088362e+00	-3.800559e-04
1.667063179666325e-03	-4.336342e-01	-2.290234e+00	-4.167063e-04
1.686594429666325e-03	-4.608436e-01	-2.457825e+00	-4.471186e-04
1.706125679666325e-03	-4.811215e-01	-2.588616e+00	-4.708358e-04
1.725656929666325e-03	-4.941628e-01	-2.680644e+00	-4.875020e-04
1.745188179666325e-03	-4.997715e-01	-2.732530e+00	-4.968675e-04
1.764719429666325e-03	-4.978632e-01	-2.743502e+00	-4.987928e-04
1.784250679666325e-03	-4.884665e-01	-2.713403e+00	-4.932502e-04
1.803781929666325e-03	-4.717228e-01	-2.642692e+00	-4.803246e-04
1.823313179666325e-03	-4.478840e-01	-2.532441e+00	-4.602117e-04
1.842844429666325e-03	-4.173086e-01	-2.384317e+00	-4.332154e-04
1.862375679666325e-03	-3.804565e-01	-2.200552e+00	-3.997429e-04
1.881906929666326e-03	-3.378820e-01	-1.983916e+00	-3.602982e-04
1.901438179666326e-03	-2.902254e-01	-1.737668e+00	-3.154752e-04
1.920969429666326e-03	-2.382035e-01	-1.465514e+00	-2.659482e-04
1.940500679666326e-03	-1.825989e-01	-1.171546e+00	-2.124620e-04
1.960031929666325e-03	-1.242478e-01	-8.601824e-01	-1.558203e-04
1.979563179666325e-03	-6.402787e-02	-5.361009e-01	-9.687424e-05
1.999094429666325e-03	-2.844918e-03	-2.041701e-01	-3.650935e-05
2.018625679666324e-03	5.838082e-02	1.306249e-01	2.436774e-05
2.038156929666324e-03	1.187285e-01	4.632560e-01	8.484278e-05
2.057688179666323e-03	1.772903e-01	7.887280e-01	1.440075e-04
2.077219429666323e-03	2.331856e-01	1.102153e+00	2.009735e-04
2.096750679666322e-03	2.855735e-01	1.398823e+00	2.548849e-04
2.116281929666322e-03	3.336661e-01	1.674281e+00	3.049318e-04
2.135813179666322e-03	3.767401e-01	1.924388e+00	3.503622e-04
2.155344429666321e-03	4.141475e-01	2.145384e+00	3.904931e-04
2.174875679666321e-03	4.453258e-01	2.333944e+00	4.247209e-04
2.194406929666320e-03	4.698060e-01	2.487232e+00	4.525305e-04
2.213938179666320e-03	4.872198e-01	2.602938e+00	4.735030e-04
2.233469429666320e-03	4.973055e-01	2.679318e+00	4.873221e-04
2.253000679666319e-03	4.999111e-01	2.715215e+00	4.937788e-04
2.272531929666319e-03	4.949977e-01	2.710084e+00	4.927749e-04
2.292063179666318e-03	4.826390e-01	2.663995e+00	4.843242e-04
2.311594429666318e-03	4.630210e-01	2.577632e+00	4.685523e-04
2.331125679666317e-03	4.364387e-01	2.452289e+00	4.456953e-04
2.350656929666317e-03	4.032920e-01	2.289844e+00	4.160959e-04
2.370188179666317e-03	3.640794e-01	2.092735e+00	3.801984e-04
2.389719429666316e-03	3.193907e-01	1.863924e+00	3.385419e-04
2.409250679666316e-03	2.698980e-01	1.606849e+00	2.917528e-04
2.428781929666315e-03	2.163459e-01	1.325378e+00	2.405346e-04
2.448313179666315e-03	1.595397e-01	1.023745e+00	1.856582e-04
2.467844429666315e-03	1.003338e-01	7.064900e-01	1.279493e-04
2.487375679666314e-03	3.961889e-02	3.783903e-01	6.827689e-05
2.506906929666314e-03	-2.169195e-02	4.438676e-02	7.539583e-06
2.526438179666313e-03	-8.267653e-02	-2.904899e-01	-5.334781e-05
2.545969429666313e-03	-1.424176e-01	-6.211952e-01	-1.134681e-04
2.565500679666312e-03	-2.000165e-01	-9.427471e-01	-1.719157e-04
2.585031929666312e-03	-2.546071e-01	-1.250302e+00	-2.278101e-04
2.604563179666312e-03	-3.053680e-01	-1.539227e+00	-2.803095e-04
2.624094429666311e-03	-3.515360e-01	-1.805172e+00	-3.286233e-04
2.643625679666311e-03	-3.924165e-01	-2.044132e+00	-3.720241e-04
2.663156929666310e-03	-4.273948e-01	-2.252512e+00	-4.098589e-04
2.682688179666310e-03	-4.559446e-01	-2.427178e+00	-4.415585e-04
2.702219429666310e-03	-4.776366e-01	-2.565504e+00	-4.666466e-04
2.721750679666309e-03	-4.921445e-01	-2.665414e+00	-4.847464e-04
2.741281929666309e-03	-4.992501e-01	-2.725410e+00	-4.955868e-04
2.760813179666308e-03	-4.988464e-01	-2.744597e+00	-4.990059e-04
2.780344429666308e-03	-4.909397e-01	-2.722695e+00	-4.949537e-04
2.799875679666307e-03	-4.756488e-01	-2.660040e+00	-4.834925e-04
2.819406929666307e-03	-4.532037e-01	-2.557583e+00	-4.647962e-04
2.838938179666307e-03	-4.239420e-01	-2.416873e+00	-4.391473e-04
2.858469429666306e-03	-3.883038e-01	-2.240031e+00	-4.069326e-04
2.878000679666306e-03	-3.468251e-01	-2.029723e+00	-3.686376e-04
2.897531929666305e-03	-3.001299e-01	-1.789115e+00	-3.248388e-04
2.917063179666305e-03	-2.489204e-01	-1.521826e+00	-2.761951e-04
2.936594429666305e-03	-1.939670e-01	-1.231877e+00	-2.234381e-04
2.956125679666304e-03	-1.360961e-01	-9.236255e-01	-1.673608e-04
2.975656929666304e-03	-7.617818e-02	-6.017031e-01	-1.088057e-04
2.995188179666303e-03	-1.511448e-02	-2.709460e-01	-4.865251e-05
3.014719429666303e-03	4.617656e-02	6.367809e-02	1.219524e-05
3.034250679666302e-03	1.067731e-01	3.971437e-01	7.282373e-05
3.053781929666302e-03	1.657636e-01	7.244431e-01	1.323225e-04
3.073313179666302e-03	2.222609e-01	1.040661e+00	1.897978e-04
3.092844429666301e-03	2.754152e-01	1.341047e+00	2.443866e-04
3.112375679666301e-03	3.244269e-01	1.621090e+00	2.952686e-04
3.131906929666300e-03	3.685590e-01	1.876581e+00	3.416793e-04
3.151438179666300e-03	4.071477e-01	2.103680e+00	3.829211e-04
3.170969429666300e-03	4.396124e-01	2.298971e+00	4.183736e-04
3.190500679666299e-03	4.654650e-01	2.459515e+00	4.475036e-04
3.210031929666299e-03	4.843165e-01	2.582896e+00	4.698721e-04
3.229563179666298e-03	4.958835e-01	2.667252e+00	4.851421e-04
3.249094429666298e-03	4.999919e-01	2.711309e+00	4.930828e-04
3.268625679666297e-03	4.965800e-01	2.714399e+00	4.935735e-04
3.288156929666297e-03	4.856990e-01	2.676465e+00	4.866056e-04
3.307688179666297e-03	4.675127e-01	2.598073e+00	4.722826e-04
3.327219429666296e-03	4.422946e-01	2.480394e+00	4.508186e-04
3.346750679666296e-03	4.104239e-01	2.325192e+00	4.225353e-04
3.366281929666295e-03	3.723801e-01	2.134795e+00	3.878571e-04
3.385813179666295e-03	3.287353e-01	1.912064e+00	3.473050e-04
3.405344429666295e-03	2.801461e-01	1.660345e+00	3.014885e-04
3.424875679666294e-03	2.273432e-01	1.383425e+00	2.510965e-04
3.444406929666294e-03	1.711208e-01	1.085470e+00	1.968872e-04
3.463938179666293e-03	1.123246e-01	7.709643e-01	1.396765e-04
3.483469429666293e-03	5.183899e-02	4.446425e-01	8.032563e-05
3.503000679666292e-03	-9.426354e-03	1.114190e-01	1.972845e-05
3.522531929666292e-03	-7.054992e-02	-2.236873e-01	-4.120242e-05
3.542063179666292e-03	-1.306124e-01	-5.556285e-01	-1.015492e-04
3.561594429666291e-03	-1.887103e-01	-8.794041e-01	-1.604027e-04
3.581125679666291e-03	-2.439698e-01	-1.190137e+00	-2.168766e-04
3.600656929666290e-03	-2.955598e-01	-1.483146e+00	-2.701200e-04
3.620188179666290e-03	-3.427043e-01	-1.754019e+00	-3.193313e-04
3.639719429666290e-03	-3.846942e-01	-1.998678e+00	-3.637695e-04
3.659250679666289e-03	-4.208979e-01	-2.213440e+00	-4.027658e-04
3.678781929666289e-03	-4.507710e-01	-2.395076e+00	-4.357336e-04
3.698313179666288e-03	-4.738640e-01	-2.540854e+00	-4.621774e-04
3.717844429666288e-03	-4.898297e-01	-2.648586e+00	-4.817001e-04
3.737375679666287e-03	-4.984279e-01	-2.716656e+00	-4.940089e-04
3.756906929666287e-03	-4.995292e-01	-2.744047e+00	-4.989198e-04
3.776438179666287e-03	-4.931172e-01	-2.730355e+00	-4.963605e-04
3.795969429666286e-03	-4.792883e-01	-2.675794e+00	-4.863707e-04
3.815500679666286e-03	-4.582503e-01	-2.581193e+00	-4.691023e-04
3.835031929666285e-03	-4.303199e-01	-2.447981e+00	-4.448162e-04
3.854563179666285e-03	-3.959171e-01	-2.278169e+00	-4.138789e-04
3.874094429666285e-03	-3.555593e-01	-2.074317e+00	-3.767566e-04
3.893625679666284e-03	-3.098536e-01	-1.839493e+00	-3.340084e-04
3.913156929666284e-03	-2.594874e-01	-1.577231e+00	-2.862773e-04
3.932688179666284e-03	-2.052182e-01	-1.291475e+00	-2.342814e-04
3.952219429666283e-03	-1.478624e-01	-9.865211e-01	-1.788020e-04
3.971750679666283e-03	-8.828259e-02	-6.669515e-01	-1.206731e-04
3.991281929666282e-03	-2.737493e-02	-3.375670e-01	-6.076786e-05
4.010813179666282e-03	3.394448e-02	-3.315088e-03	1.394385e-08
4.030344429666282e-03	9.475332e-02	3.307845e-01	6.075943e-05
4.049875679666281e-03	1.541370e-01	6.597143e-01	1.205563e-04
4.069406929666281e-03	2.112023e-01	9.785348e-01	1.785066e-04
4.088938179666280e-03	2.650909e-01	1.282457e+00	2.337398e-04
4.108469429666280e-03	3.149924e-01	1.566916e+00	2.854263e-04
4.128000679666280e-03	3.601560e-01	1.827637e+00	3.327894e-04
4.147531929666279e-03	3.999026e-01	2.060702e+00	3.751172e-04
4.167063179666279e-03	4.336342e-01	2.262605e+00	4.117732e-04
4.186594429666278e-03	4.608436e-01	2.430310e+00	4.422059e-04
4.206125679666278e-03	4.811215e-01	2.561291e+00	4.659570e-04
4.225656929666277e-03	4.941628e-01	2.653573e+00	4.826687e-04
4.245188179666277e-03	4.997715e-01	2.705763e+00	4.920884e-04
4.264719429666277e-03	4.978632e-01	2.717070e+00	4.940734e-04
4.284250679666276e-03	4.884665e-01	2.687315e+00	4.885925e-04
4.303781929666276e-03	4.717228e-01	2.616941e+00	4.757269e-04
4.323313179666275e-03	4.478840e-01	2.506997e+00	4.556687e-04
4.342844429666275e-03	4.173086e-01	2.359130e+00	4.287185e-04
4.362375679666275e-03	3.804565e-01	2.175560e+00	3.952807e-04
4.381906929666274e-03	3.378820e-01	1.959043e+00	3.558573e-04
4.401438179666274e-03	2.902254e-01	1.712832e+00	3.110409e-04
4.420969429666273e-03	2.382035e-01	1.440630e+00	2.615054e-04
4.440500679666273e-03	1.825989e-01	1.146533e+00	2.079960e-04
4.460031929666273e-03	1.242478e-01	8.349652e-01	1.513179e-04
4.479563179666272e-03	6.402787e-02	5.106182e-01	9.232447e-05
4.499094429666272e-03	2.844918e-03	1.783758e-01	3.190395e-05
4.508860054666271e-03	-2.782031e-02	1.085500e-02	1.442437e-06
4.528391304666271e-03	-8.872161e-02	-3.238311e-01	-5.940943e-05
4.547922554666271e-03	-1.482885e-01	-6.538435e-01	-1.194029e-04
4.567453804666270e-03	-2.056249e-01	-9.742108e-01	-1.776343e-04
4.586985054666270e-03	-2.598686e-01	-1.280107e+00	-2.332263e-04
4.606516304666269e-03	-3.102036e-01	-1.566925e+00	-2.853418e-04
4.626047554666269e-03	-3.558728e-01	-1.830345e+00	-3.331958e-04
4.645578804666269e-03	-3.961894e-01	-2.066402e+00	-3.760682e-04
4.665110054666268e-03	-4.305469e-01	-2.271544e+00	-4.133135e-04
4.684641304666268e-03	-4.584286e-01	-2.442685e+00	-4.443718e-04
4.704172554666267e-03	-4.794151e-01	-2.577253e+00	-4.687763e-04
4.723703804666267e-03	-4.931908e-01	-2.673229e+00	-4.861607e-04
4.743235054666266e-03	-4.995484e-01	-2.729175e+00	-4.962644e-04
4.762766304666266e-03	-4.983923e-01	-2.744256e+00	-4.989367e-04
4.782297554666266e-03	-4.897400e-01	-2.718252e+00	-4.941390e-04
4.801828804666265e-03	-4.737215e-01	-2.651565e+00	-4.819446e-04
4.821360054666265e-03	-4.505778e-01	-2.545203e+00	-4.625386e-04
4.840891304666264e-03	-4.206570e-01	-2.400774e+00	-4.362140e-04
4.860422554666264e-03	-3.844091e-01	-2.220458e+00	-4.033679e-04
4.879953804666264e-03	-3.423793e-01	-2.006969e+00	-3.644952e-04
4.899485054666263e-03	-2.951999e-01	-1.763523e+00	-3.201809e-04
4.919016304666263e-03	-2.435803e-01	-1.493782e+00	-2.710919e-04
4.938547554666262e-03	-1.882971e-01	-1.201801e+00	-2.179663e-04
4.958078804666262e-03	-1.301817e-01	-8.919700e-01	-1.616025e-04
4.977610054666261e-03	-7.010830e-02	-5.689438e-01	-1.028475e-04
4.997141304666261e-03	-8.980373e-03	-2.375749e-01	-4.258395e-05
5.016672554666261e-03	5.228263e-02	9.715979e-02	1.828304e-05
5.036203804666260e-03	1.127592e-01	4.302332e-01	7.883937e-05
5.055735054666260e-03	1.715399e-01	7.566434e-01	1.381756e-04
5.075266304666259e-03	2.277404e-01	1.071488e+00	1.954005e-04
5.094797554666259e-03	2.805154e-01	1.370039e+00	2.496547e-04
5.114328804666259e-03	3.290713e-01	1.647810e+00	3.001229e-04
5.133860054666258e-03	3.726776e-01	1.900628e+00	3.460470e-04
5.153391304666258e-03	4.106785e-01	2.124692e+00	3.867364e-04
5.172922554666257e-03	4.425024e-01	2.316633e+00	4.215792e-04
5.192453804666257e-03	4.676707e-01	2.473561e+00	4.500510e-04
5.211985054666256e-03	4.858048e-01	2.593113e+00	4.717232e-04
5.231516304666256e-03	4.966319e-01	2.673487e+00	4.862689e-04
5.251047554666256e-03	4.999892e-01	2.713468e+00	4.934681e-04
5.270578804666255e-03	4.958262e-01	2.712447e+00	4.932116e-04
5.290110054666255e-03	4.842055e-01	2.670432e+00	4.855016e-04
5.309641304666254e-03	4.653019e-01	2.588049e+00	4.704531e-04
5.329172554666254e-03	4.393997e-01	2.466528e+00	4.482909e-04
5.348703804666254e-03	4.068886e-01	2.307693e+00	4.193474e-04
5.368235054666253e-03	3.682575e-01	2.113925e+00	3.840569e-04
5.387766304666253e-03	3.240874e-01	1.888137e+00	3.429495e-04
5.407297554666252e-03	2.750428e-01	1.633721e+00	2.966432e-04
5.426828804666252e-03	2.218612e-01	1.354505e+00	2.458343e-04
5.446360054666251e-03	1.653427e-01	1.054688e+00	1.912873e-04
5.465891304666251e-03	1.063372e-01	7.387838e-01	1.338231e-04
5.485422554666251e-03	4.573239e-02	4.115485e-01	7.430705e-05
5.504953804666250e-03	-1.556032e-02	7.790977e-02	1.363523e-05
5.524485054666250e-03	-7.661899e-02	-2.571070e-01	-4.727850e-05
5.544016304666249e-03	-1.365252e-01	-5.884551e-01	-1.075166e-04
5.563547554666249e-03	-1.943780e-01	-9.111433e-01	-1.661716e-04
5.583078804666249e-03	-2.493072e-01	-1.220310e+00	-2.223599e-04
5.602610054666248e-03	-3.004865e-01	-1.511300e+00	-2.752354e-04
5.622141304666248e-03	-3.471463e-01	-1.779729e+00	-3.240016e-04
5.641672554666247e-03	-3.885846e-01	-2.021557e+00	-3.679244e-04
5.661203804666247e-03	-4.241783e-01	-2.233144e+00	-4.063428e-04
5.680735054666246e-03	-4.533919e-01	-2.411308e+00	-4.386790e-04
5.700266304666246e-03	-4.757861e-01	-2.553370e+00	-4.644468e-04
5.719797554666246e-03	-4.910240e-01	-2.657199e+00	-4.832595e-04
5.739328804666245e-03	-4.988765e-01	-2.721237e+00	-4.948349e-04
5.758860054666245e-03	-4.992254e-01	-2.744528e+00	-4.990003e-04
5.778391304666244e-03	-4.920655e-01	-2.726729e+00	-4.956942e-04
5.797922554666244e-03	-4.775045e-01	-2.668117e+00	-4.849680e-04
5.817453804666244e-03	-4.557613e-01	-2.569580e+00	-4.669842e-04
5.836985054666243e-03	-4.271631e-01	-2.432609e+00	-4.420148e-04
5.856516304666243e-03	-3.921400e-01	-2.259269e+00	-4.104364e-04
5.876047554666242e-03	-3.512187e-01	-2.052173e+00	-3.727250e-04
5.895578804666242e-03	-3.050147e-01	-1.814439e+00	-3.294482e-04
5.915110054666241e-03	-2.542230e-01	-1.549644e+00	-2.812572e-04
5.934641304666241e-03	-1.996076e-01	-1.261770e+00	-2.288768e-04
