time	V(vin)	V(vo)	I(Rl)
0.000000000000000e+00	0.000000e+00	-2.582980e-02	-2.326830e-06
2.060385582723606e-07	2.589164e-03	-2.567098e-02	-2.289196e-06
4.120771165447211e-07	5.178314e-03	-2.518881e-02	-2.222432e-06
6.181156748170816e-07	7.767449e-03	-2.438329e-02	-2.126538e-06
8.241542330894422e-07	1.035657e-02	-2.325443e-02	-2.001514e-06
1.030192791361803e-06	1.294568e-02	-2.180222e-02	-1.847360e-06
1.236231349634163e-06	1.553477e-02	-2.002666e-02	-1.664075e-06
1.442269907906523e-06	1.812385e-02	-1.792775e-02	-1.451660e-06
2.608288527055571e-06	3.277525e-02	-6.340445e-04	2.383176e-07
4.513596175318782e-06	5.671192e-02	4.432768e-02	4.504546e-06
7.034809401863773e-06	8.837324e-02	1.333724e-01	1.281178e-05
1.055515153107089e-05	1.325427e-01	3.078126e-01	2.892489e-05
1.533873805047158e-05	1.924540e-01	6.207183e-01	5.765400e-05
2.175092631442354e-05	2.724802e-01	1.145752e+00	1.056745e-04
3.018065988402349e-05	3.769924e-01	1.963591e+00	1.802937e-04
3.994628488402350e-05	4.967259e-01	3.028100e+00	2.772727e-04
4.971190988402350e-05	6.145899e-01	4.172113e+00	3.813978e-04
6.924315988402350e-05	8.429434e-01	6.565799e+00	5.991005e-04
7.900878488402350e-05	9.525735e-01	7.725065e+00	7.045282e-04
8.561231832467863e-05	1.024698e+00	8.287629e+00	7.558615e-04
9.121043122325700e-05	1.084465e+00	8.457210e+00	7.716779e-04
1.105601099217956e-04	1.280263e+00	8.476794e+00	7.751990e-04
1.300913599217956e-04	1.458723e+00	8.483591e+00	7.774168e-04
1.496226099217956e-04	1.615242e+00	8.487436e+00	7.791720e-04
1.691538599217956e-04	1.747466e+00	8.489662e+00	7.805626e-04
1.886851099217956e-04	1.853407e+00	8.490947e+00	7.816319e-04
2.082163599217956e-04	1.931471e+00	8.491673e+00	7.823999e-04
2.277476099217956e-04	1.980483e+00	8.492054e+00	7.828753e-04
2.472788599217956e-04	1.999708e+00	8.492199e+00	7.830614e-04
2.668101099217957e-04	1.988855e+00	8.492146e+00	7.829589e-04
2.863413599217957e-04	1.948087e+00	8.491882e+00	7.825684e-04
3.058726099217957e-04	1.878019e+00	8.491339e+00	7.818887e-04
3.254038599217957e-04	1.779703e+00	8.490358e+00	7.809156e-04
3.449351099217957e-04	1.654619e+00	8.488654e+00	7.796361e-04
3.644663599217957e-04	1.504648e+00	8.485713e+00	7.780213e-04
3.839976099217958e-04	1.332046e+00	8.480603e+00	7.760075e-04
4.035288599217958e-04	1.139409e+00	8.471328e+00	7.734380e-04
4.230601099217958e-04	9.296334e-01	8.450051e+00	7.696332e-04
4.328257349217958e-04	8.192964e-01	8.412253e+00	7.652360e-04
4.410355788535407e-04	7.241340e-01	8.302049e+00	7.544531e-04
4.468877552770131e-04	6.551089e-01	8.103087e+00	7.359080e-04
4.526987012397527e-04	5.856936e-01	7.760303e+00	7.044006e-04
4.611769815534140e-04	4.830406e-01	7.084043e+00	6.425508e-04
4.700257502895242e-04	3.744448e-01	6.228468e+00	5.644940e-04
4.797913752895243e-04	2.532672e-01	5.151424e+00	4.663721e-04
4.895570002895242e-04	1.311365e-01	3.981059e+00	3.598345e-04
4.993226252895242e-04	8.512116e-03	2.746300e+00	2.474912e-04
5.090882502895242e-04	-1.141443e-01	1.469683e+00	1.313768e-04
5.188538752895242e-04	-2.363710e-01	1.673048e-01	1.294527e-05
5.286195002895242e-04	-3.577082e-01	-1.148748e+00	-1.067102e-04
5.481507502895243e-04	-5.958918e-01	-3.785233e+00	-3.463751e-04
5.676820002895243e-04	-8.251126e-01	-6.379391e+00	-5.821461e-04
5.774476252895243e-04	-9.352779e-01	-7.645270e+00	-6.971809e-04
5.872132502895243e-04	-1.041923e+00	-8.839931e+00	-8.057678e-04
5.969788752895243e-04	-1.144647e+00	-9.742279e+00	-8.879888e-04
6.029240518620287e-04	-1.205098e+00	-9.957027e+00	-9.078822e-04
6.243623222277314e-04	-1.408536e+00	-9.978271e+00	-9.116207e-04
6.438935722277314e-04	-1.571750e+00	-9.984740e+00	-9.136724e-04
6.634248222277315e-04	-1.711324e+00	-9.988510e+00	-9.152682e-04
6.829560722277315e-04	-1.825158e+00	-9.990747e+00	-9.164944e-04
7.024873222277315e-04	-1.911539e+00	-9.992059e+00	-9.173900e-04
7.220185722277315e-04	-1.969169e+00	-9.992785e+00	-9.179740e-04
7.415498222277315e-04	-1.997182e+00	-9.993111e+00	-9.182555e-04
7.610810722277315e-04	-1.995154e+00	-9.993119e+00	-9.182381e-04
7.806123222277316e-04	-1.963118e+00	-9.992814e+00	-9.179222e-04
8.001435722277316e-04	-1.901555e+00	-9.992119e+00	-9.173056e-04
8.196748222277316e-04	-1.811390e+00	-9.990860e+00	-9.163806e-04
8.392060722277316e-04	-1.693981e+00	-9.988708e+00	-9.151300e-04
8.587373222277316e-04	-1.551092e+00	-9.985085e+00	-9.135176e-04
8.782685722277316e-04	-1.384874e+00	-9.978892e+00	-9.114636e-04
8.977998222277317e-04	-1.197825e+00	-9.967456e+00	-9.087498e-04
9.173310722277317e-04	-9.927607e-01	-9.933200e+00	-9.038181e-04
9.270966972277317e-04	-8.844268e-01	-9.857246e+00	-8.960037e-04
9.323148618592648e-04	-8.251486e-01	-9.731401e+00	-8.841344e-04
9.377218109435237e-04	-7.627909e-01	-9.469911e+00	-8.600141e-04
9.455455260623544e-04	-6.710219e-01	-8.915443e+00	-8.092338e-04
9.553111510623544e-04	-5.542263e-01	-8.038130e+00	-7.291440e-04
9.650767760623544e-04	-4.353449e-01	-7.012979e+00	-6.357181e-04
9.748424010623544e-04	-3.148248e-01	-5.882325e+00	-5.327727e-04
9.846080260623544e-04	-1.931199e-01	-4.682058e+00	-4.235451e-04
9.943736510623544e-04	-7.068806e-02	-3.435585e+00	-3.101483e-04
1.004139276062354e-03	5.200981e-02	-2.158922e+00	-1.940293e-04
1.013904901062354e-03	1.745119e-01	-8.636750e-01	-7.623774e-05
1.023670526062354e-03	2.963572e-01	4.411997e-01	4.241522e-05
1.043201776062354e-03	5.362471e-01	3.051431e+00	2.797303e-04
1.062733026062354e-03	7.680714e-01	5.622813e+00	5.134729e-04
1.072498651062354e-03	8.798631e-01	6.880735e+00	6.278054e-04
1.082264276062354e-03	9.883432e-01	8.006600e+00	7.302149e-04
1.087682649603461e-03	1.046953e+00	8.364448e+00	7.629826e-04
1.094180445459082e-03	1.115634e+00	8.465093e+00	7.726685e-04
1.115035627506914e-03	1.322960e+00	8.478717e+00	7.757558e-04
1.134566877506914e-03	1.496617e+00	8.484667e+00	7.778549e-04
1.154098127506914e-03	1.647764e+00	8.488059e+00	7.795208e-04
1.173629377506914e-03	1.774128e+00	8.490023e+00	7.808350e-04
1.193160627506914e-03	1.873806e+00	8.491153e+00	7.818340e-04
1.212691877506914e-03	1.945301e+00	8.491786e+00	7.825345e-04
1.232223127506914e-03	1.987537e+00	8.492105e+00	7.829435e-04
1.251754377506914e-03	1.999879e+00	8.492203e+00	7.830634e-04
1.271285627506914e-03	1.982140e+00	8.492105e+00	7.828949e-04
1.290816877506914e-03	1.934588e+00	8.491787e+00	7.824382e-04
1.310348127506914e-03	1.857938e+00	8.491161e+00	7.816919e-04
1.329879377506914e-03	1.753343e+00	8.490047e+00	7.806501e-04
1.349410627506914e-03	1.622376e+00	8.488114e+00	7.792973e-04
1.368941877506914e-03	1.467007e+00	8.484780e+00	7.775985e-04
1.388473127506914e-03	1.289573e+00	8.478960e+00	7.754772e-04
1.408004377506914e-03	1.092743e+00	8.468146e+00	7.727314e-04
1.427535627506914e-03	8.794762e-01	8.438563e+00	7.681468e-04
1.437301252506914e-03	7.676737e-01	8.372488e+00	7.611901e-04
1.443534653687728e-03	6.947724e-01	8.231524e+00	7.478356e-04
1.450096597551137e-03	6.168794e-01	7.925141e+00	7.195320e-04
1.456811479044927e-03	5.360867e-01	7.452597e+00	6.762319e-04
1.466577104044927e-03	4.169242e-01	6.572496e+00	5.958696e-04
1.476342729044927e-03	2.961925e-01	5.544308e+00	5.021534e-04
1.486108354044927e-03	1.743460e-01	4.403588e+00	3.982891e-04
1.495873979044927e-03	5.184330e-02	3.188396e+00	2.877097e-04
1.505639604044927e-03	-7.085452e-02	1.924353e+00	1.727276e-04
1.515405229044927e-03	-1.932857e-01	6.294589e-01	5.496856e-05
1.525170854044927e-03	-3.149893e-01	-6.830047e-01	-6.436679e-05
1.544702104044927e-03	-5.543864e-01	-3.321248e+00	-3.042011e-04
1.564233354044927e-03	-7.854450e-01	-5.926632e+00	-5.410000e-04
1.583764604044927e-03	-1.004690e+00	-8.449467e+00	-7.702557e-04
1.593530229044927e-03	-1.108843e+00	-9.553197e+00	-8.706328e-04
1.598753199844614e-03	-1.162859e+00	-9.880717e+00	-9.006273e-04
1.604901118518704e-03	-1.224832e+00	-9.964990e+00	-9.087778e-04
1.625601517268321e-03	-1.419548e+00	-9.978775e+00	-9.117652e-04
1.645132767268321e-03	-1.581332e+00	-9.985043e+00	-9.137859e-04
1.664664017268321e-03	-1.719331e+00	-9.988689e+00	-9.153564e-04
1.684195267268321e-03	-1.831470e+00	-9.990854e+00	-9.165608e-04
1.703726517268321e-03	-1.916061e+00	-9.992120e+00	-9.174361e-04
1.723257767268321e-03	-1.971833e+00	-9.992815e+00	-9.180009e-04
1.742789017268321e-03	-1.997948e+00	-9.993120e+00	-9.182633e-04
1.762320267268321e-03	-1.994011e+00	-9.993110e+00	-9.182270e-04
1.781851517268321e-03	-1.960082e+00	-9.992783e+00	-9.178921e-04
1.801382767268321e-03	-1.896672e+00	-9.992059e+00	-9.172562e-04
1.820914017268321e-03	-1.804734e+00	-9.990754e+00	-9.163112e-04
1.840445267268321e-03	-1.685651e+00	-9.988530e+00	-9.150390e-04
1.859976517268321e-03	-1.541215e+00	-9.984785e+00	-9.134017e-04
1.879507767268321e-03	-1.373597e+00	-9.978367e+00	-9.113149e-04
1.899039017268321e-03	-1.185319e+00	-9.966406e+00	-9.085427e-04
1.918570267268321e-03	-9.792125e-01	-9.926056e+00	-9.030525e-04
1.928335892268321e-03	-8.704333e-01	-9.825328e+00	-8.930018e-04
1.934115562111092e-03	-8.044835e-01	-9.655031e+00	-8.770678e-04
1.939741496423077e-03	-7.392685e-01	-9.342395e+00	-8.483138e-04
1.948957240121785e-03	-6.304830e-01	-8.631598e+00	-7.832969e-04
1.957421757986460e-03	-5.286944e-01	-7.832501e+00	-7.103898e-04
1.967187382986460e-03	-4.094206e-01	-6.775322e+00	-6.140742e-04
1.976953007986460e-03	-2.886059e-01	-5.627401e+00	-5.095706e-04
1.986718632986459e-03	-1.667049e-01	-4.415655e+00	-3.993071e-04
1.996484257986459e-03	-4.417652e-02	-3.161596e+00	-2.852259e-04
2.006249882986459e-03	7.851816e-02	-1.880112e+00	-1.686726e-04
2.016015507986459e-03	2.009173e-01	-5.821334e-01	-5.063596e-05
2.025781132986459e-03	3.225603e-01	7.237896e-01	6.810962e-05
2.045312382986458e-03	5.617508e-01	3.331975e+00	3.052341e-04
2.064843632986458e-03	7.924920e-01	5.896570e+00	5.383555e-04
2.074609257986458e-03	9.036033e-01	7.144975e+00	6.518245e-04
2.084374882986457e-03	1.011313e+00	8.190395e+00	7.469801e-04
2.089459977967847e-03	1.065918e+00	8.438628e+00	7.698371e-04
2.108298305962332e-03	1.258299e+00	8.475802e+00	7.749138e-04
2.127829555962332e-03	1.439131e+00	8.482988e+00	7.771862e-04
2.147360805962331e-03	1.598318e+00	8.487091e+00	7.789886e-04
2.166892055962331e-03	1.733465e+00	8.489463e+00	7.804186e-04
2.186423305962330e-03	1.842539e+00	8.490832e+00	7.815237e-04
2.205954555962330e-03	1.923899e+00	8.491610e+00	7.823260e-04
2.225485805962330e-03	1.976323e+00	8.492023e+00	7.828351e-04
2.245017055962329e-03	1.999020e+00	8.492192e+00	7.830546e-04
2.264548305962329e-03	1.991650e+00	8.492162e+00	7.829855e-04
2.284079555962328e-03	1.954324e+00	8.491926e+00	7.826284e-04
2.303610805962328e-03	1.887603e+00	8.491421e+00	7.819823e-04
2.323142055962327e-03	1.792491e+00	8.490502e+00	7.810435e-04
2.342673305962327e-03	1.670418e+00	8.488903e+00	7.798007e-04
2.362204555962327e-03	1.523221e+00	8.486141e+00	7.782271e-04
2.381735805962326e-03	1.353112e+00	8.481354e+00	7.762647e-04
2.401267055962326e-03	1.162652e+00	8.472740e+00	7.737745e-04
2.420798305962325e-03	9.547043e-01	8.454128e+00	7.702262e-04
2.430563930962325e-03	8.451411e-01	8.422931e+00	7.664295e-04
2.440329555962325e-03	7.323970e-01	8.311103e+00	7.553422e-04
2.446648131027518e-03	6.579533e-01	8.109486e+00	7.365097e-04
2.452792781454523e-03	5.845631e-01	7.752218e+00	7.036619e-04
2.461182062608955e-03	4.829786e-01	7.084432e+00	6.425853e-04
2.469951170130438e-03	3.753653e-01	6.236491e+00	5.652251e-04
2.479716795130438e-03	2.541969e-01	5.160014e+00	4.671542e-04
2.489482420130438e-03	1.320716e-01	3.990260e+00	3.606718e-04
2.499248045130438e-03	9.449309e-03	2.755902e+00	2.483648e-04
2.509013670130437e-03	-1.132086e-01	1.479542e+00	1.322733e-04
2.518779295130437e-03	-2.354404e-01	1.773126e-01	1.385525e-05
2.528544920130437e-03	-3.567860e-01	-1.138674e+00	-1.057942e-04
2.548076170130436e-03	-5.949970e-01	-3.775214e+00	-3.454644e-04
2.567607420130436e-03	-8.242588e-01	-6.369629e+00	-5.812590e-04
2.577373045130436e-03	-9.344494e-01	-7.635703e+00	-6.963115e-04
2.587138670130436e-03	-1.041123e+00	-8.832562e+00	-8.050968e-04
2.596904295130435e-03	-1.143878e+00	-9.741003e+00	-8.878669e-04
2.602795952581470e-03	-1.203812e+00	-9.956594e+00	-9.078317e-04
2.624096503399722e-03	-1.406163e+00	-9.978155e+00	-9.115889e-04
2.643627753399721e-03	-1.569682e+00	-9.984674e+00	-9.136479e-04
2.663159003399721e-03	-1.709593e+00	-9.988470e+00	-9.152491e-04
2.682690253399721e-03	-1.823789e+00	-9.990725e+00	-9.164800e-04
2.702221503399720e-03	-1.910554e+00	-9.992045e+00	-9.173799e-04
2.721752753399720e-03	-1.968583e+00	-9.992777e+00	-9.179681e-04
2.741284003399719e-03	-1.997002e+00	-9.993109e+00	-9.182537e-04
2.760815253399719e-03	-1.995384e+00	-9.993121e+00	-9.182403e-04
2.780346503399719e-03	-1.963754e+00	-9.992821e+00	-9.179285e-04
2.799877753399718e-03	-1.902587e+00	-9.992132e+00	-9.173160e-04
2.819409003399718e-03	-1.812804e+00	-9.990881e+00	-9.163953e-04
2.838940253399717e-03	-1.695754e+00	-9.988746e+00	-9.151494e-04
2.858471503399717e-03	-1.553199e+00	-9.985149e+00	-9.135422e-04
2.878002753399716e-03	-1.387282e+00	-9.979002e+00	-9.114952e-04
2.897534003399716e-03	-1.200499e+00	-9.967673e+00	-9.087935e-04
2.917065253399716e-03	-9.956591e-01	-9.934456e+00	-9.039573e-04
2.926830878399715e-03	-8.874215e-01	-9.862140e+00	-8.964716e-04
2.932057527090609e-03	-8.280932e-01	-9.739748e+00	-8.849127e-04
2.937610146291489e-03	-7.640879e-01	-9.476654e+00	-8.606333e-04
2.945086370321735e-03	-6.764545e-01	-8.953411e+00	-8.127033e-04
2.954851995321734e-03	-5.597680e-01	-8.083820e+00	-7.333103e-04
2.964328486257430e-03	-4.445179e-01	-7.096560e+00	-6.433307e-04
2.974094111257430e-03	-3.241074e-01	-5.971642e+00	-5.409028e-04
2.983859736257430e-03	-2.024771e-01	-4.775816e+00	-4.320760e-04
2.993625361257430e-03	-8.008466e-02	-3.532280e+00	-3.189441e-04
3.003390986257429e-03	4.260917e-02	-2.257498e+00	-2.029945e-04
3.013156611257429e-03	1.651426e-01	-9.633445e-01	-8.530129e-05
3.022922236257429e-03	2.870545e-01	3.410604e-01	3.330993e-05
3.042453486257429e-03	5.271823e-01	2.951865e+00	2.706788e-04
3.061984736257428e-03	7.593808e-01	5.525531e+00	5.046306e-04
3.071750361257428e-03	8.714090e-01	6.785174e+00	6.191202e-04
3.081515986257428e-03	9.801574e-01	7.933172e+00	7.235258e-04
3.087162195344472e-03	1.041375e+00	8.333574e+00	7.601506e-04
3.094299344936702e-03	1.116874e+00	8.464609e+00	7.726358e-04
3.115074111435104e-03	1.323322e+00	8.478764e+00	7.757633e-04
3.134605361435104e-03	1.496938e+00	8.484675e+00	7.778585e-04
3.154136611435104e-03	1.648038e+00	8.488064e+00	7.795237e-04
3.173667861435103e-03	1.774351e+00	8.490026e+00	7.808373e-04
3.193199111435103e-03	1.873975e+00	8.491155e+00	7.818356e-04
3.212730361435102e-03	1.945414e+00	8.491787e+00	7.825356e-04
3.232261611435102e-03	1.987591e+00	8.492106e+00	7.829440e-04
3.251792861435102e-03	1.999873e+00	8.492204e+00	7.830633e-04
3.271324111435101e-03	1.982075e+00	8.492105e+00	7.828943e-04
3.290855361435101e-03	1.934465e+00	8.491787e+00	7.824370e-04
3.310386611435100e-03	1.857759e+00	8.491159e+00	7.816902e-04
3.329917861435100e-03	1.753110e+00	8.490044e+00	7.806477e-04
3.349449111435099e-03	1.622093e+00	8.488110e+00	7.792943e-04
3.368980361435099e-03	1.466679e+00	8.484772e+00	7.775948e-04
3.388511611435099e-03	1.289203e+00	8.478945e+00	7.754725e-04
3.408042861435098e-03	1.092338e+00	8.468116e+00	7.727251e-04
3.427574111435098e-03	8.790419e-01	8.438427e+00	7.681307e-04
3.437339736435098e-03	7.672271e-01	8.373473e+00	7.612749e-04
3.443386617315566e-03	6.965165e-01	8.239402e+00	7.485612e-04
3.449749434379263e-03	6.210278e-01	7.946819e+00	7.215223e-04
3.456470061388869e-03	5.402188e-01	7.479270e+00	6.786720e-04
3.466235686388869e-03	4.211194e-01	6.606078e+00	5.989327e-04
3.476001311388869e-03	3.004349e-01	5.582617e+00	5.056427e-04
3.485766936388868e-03	1.786196e-01	4.445026e+00	4.020607e-04
3.495532561388868e-03	5.613212e-02	3.231905e+00	2.916680e-04
3.505298186388868e-03	-6.656668e-02	1.969203e+00	1.768067e-04
3.515063811388868e-03	-1.890149e-01	6.751242e-01	5.912099e-05
3.524829436388867e-03	-3.107518e-01	-6.369240e-01	-6.017724e-05
3.544360686388867e-03	-5.502629e-01	-3.275246e+00	-3.000196e-04
3.563891936388867e-03	-7.814975e-01	-5.881661e+00	-5.369131e-04
3.583423186388866e-03	-1.000978e+00	-8.406326e+00	-7.663358e-04
3.593188811388866e-03	-1.105270e+00	-9.521132e+00	-8.677118e-04
3.598495644628882e-03	-1.160224e+00	-9.867289e+00	-8.993936e-04
3.604890183898364e-03	-1.224723e+00	-9.964751e+00	-9.087553e-04
3.625427248785439e-03	-1.418005e+00	-9.978703e+00	-9.117448e-04
3.644958498785439e-03	-1.579990e+00	-9.985001e+00	-9.137701e-04
3.664489748785439e-03	-1.718211e+00	-9.988665e+00	-9.153442e-04
3.684020998785438e-03	-1.830589e+00	-9.990839e+00	-9.165515e-04
3.703552248785438e-03	-1.915432e+00	-9.992111e+00	-9.174297e-04
3.723083498785437e-03	-1.971466e+00	-9.992811e+00	-9.179972e-04
3.742614748785437e-03	-1.997847e+00	-9.993118e+00	-9.182623e-04
3.762145998785436e-03	-1.994179e+00	-9.993111e+00	-9.182286e-04
3.781677248785436e-03	-1.960516e+00	-9.992787e+00	-9.178964e-04
3.801208498785436e-03	-1.897365e+00	-9.992067e+00	-9.172632e-04
3.820739748785435e-03	-1.805677e+00	-9.990769e+00	-9.163209e-04
3.840270998785435e-03	-1.686829e+00	-9.988556e+00	-9.150519e-04
3.859802248785434e-03	-1.542609e+00	-9.984828e+00	-9.134181e-04
3.879333498785434e-03	-1.375188e+00	-9.978442e+00	-9.113359e-04
3.898864748785434e-03	-1.187082e+00	-9.966557e+00	-9.085721e-04
3.918395998785434e-03	-9.811214e-01	-9.927220e+00	-9.031746e-04
3.928161623785433e-03	-8.724044e-01	-9.830390e+00	-8.934757e-04
3.933851195635412e-03	-8.075240e-01	-9.667220e+00	-8.781932e-04
3.939432598525989e-03	-7.428739e-01	-9.362763e+00	-8.501813e-04
3.948446083667073e-03	-6.365756e-01	-8.675388e+00	-7.872968e-04
3.957157874053086e-03	-5.318918e-01	-7.858302e+00	-7.127429e-04
3.966923499053086e-03	-4.126659e-01	-6.805283e+00	-6.168026e-04
3.976689124053086e-03	-2.918869e-01	-5.659437e+00	-5.124863e-04
3.986454749053086e-03	-1.700092e-01	-4.449072e+00	-4.023473e-04
3.996220374053085e-03	-4.749171e-02	-3.195923e+00	-2.883483e-04
4.005985999053085e-03	7.520455e-02	-1.915014e+00	-1.718467e-04
4.015751624053085e-03	1.976178e-01	-6.173551e-01	-5.383878e-05
4.025517249053085e-03	3.192872e-01	6.884550e-01	6.489686e-05
4.045048499053084e-03	5.585675e-01	3.296926e+00	3.020479e-04
4.064579749053084e-03	7.894464e-01	5.862396e+00	5.352494e-04
4.074345374053084e-03	9.006437e-01	7.114048e+00	6.490117e-04
4.084110999053083e-03	1.008451e+00	8.173817e+00	7.454609e-04
4.089171148065587e-03	1.062845e+00	8.432050e+00	7.692169e-04
4.101001848765459e-03	1.185732e+00	8.471942e+00	7.739157e-04
4.117681760401593e-03	1.347713e+00	8.479738e+00	7.760706e-04
4.137213010401593e-03	1.518467e+00	8.485242e+00	7.781033e-04
4.156744260401592e-03	1.666382e+00	8.488392e+00	7.797183e-04
4.176275510401592e-03	1.789232e+00	8.490215e+00	7.809883e-04
4.195806760401591e-03	1.885172e+00	8.491262e+00	7.819461e-04
4.215338010401591e-03	1.952756e+00	8.491845e+00	7.826069e-04
4.234869260401591e-03	1.990969e+00	8.492131e+00	7.829766e-04
4.254400510401590e-03	1.999236e+00	8.492201e+00	7.830574e-04
4.273931760401590e-03	1.977432e+00	8.492077e+00	7.828499e-04
4.293463010401589e-03	1.925886e+00	8.491723e+00	7.823542e-04
4.312994260401589e-03	1.845373e+00	8.491044e+00	7.815683e-04
4.332525510401588e-03	1.737104e+00	8.489842e+00	7.804856e-04
4.352056760401588e-03	1.602707e+00	8.487762e+00	7.790885e-04
4.371588010401588e-03	1.444204e+00	8.484171e+00	7.773384e-04
4.391119260401587e-03	1.263979e+00	8.477877e+00	7.751492e-04
4.410650510401587e-03	1.064743e+00	8.465973e+00	7.722835e-04
4.430181760401586e-03	8.494914e-01	8.425680e+00	7.667163e-04
4.439947385401586e-03	7.368638e-01	8.321345e+00	7.563052e-04
4.446226161436820e-03	6.629584e-01	8.129290e+00	7.383390e-04
4.452369687527446e-03	5.896456e-01	7.776835e+00	7.059252e-04
4.461732474272675e-03	4.762638e-01	7.032670e+00	6.378613e-04
4.470303939632873e-03	3.710102e-01	6.201599e+00	5.620425e-04
4.480069564632872e-03	2.497992e-01	5.119762e+00	4.634884e-04
4.489835189632872e-03	1.276480e-01	3.946977e+00	3.567326e-04
4.499600814632872e-03	5.016306e-03	2.710631e+00	2.442464e-04
4.509366439632872e-03	-1.176342e-01	1.433006e+00	1.280411e-04
